Time Stamp,ID,Extended,Dir,Bus,LEN,D1,D2,D3,D4,D5,D6,D7,D8
676000,000001A6,false,Rx,0,8,02,00,00,68,18,00,00,0E,
678000,00000158,false,Rx,0,8,20,8E,06,CA,20,8E,DE,03,
678000,00000188,false,Rx,0,6,05,05,80,08,00,76,00,00,
678000,00000305,false,Rx,0,2,0E,02,00,00,00,00,00,00,
680000,00000136,false,Rx,0,8,02,00,00,0C,00,00,00,2E,
680000,0000013A,false,Rx,0,8,00,00,00,00,00,00,00,28,
680000,0000013F,false,Rx,0,8,FF,82,00,78,FF,EC,00,24,
681000,00000156,false,Rx,0,6,00,22,00,01,07,2E,00,00,
681000,0000017C,false,Rx,0,8,00,00,06,CA,02,00,00,24,
681000,000001DC,false,Rx,0,4,02,06,CA,1F,00,00,00,00,
681000,00000097,false,Rx,0,8,81,60,50,01,F9,00,00,29,
682000,0000015A,false,Rx,0,8,00,00,FF,36,00,00,00,01,
682000,000001A4,false,Rx,0,8,00,69,00,00,00,00,00,28,
682000,0000018E,false,Rx,0,3,00,02,0F,00,00,00,00,00,
683000,000001AA,false,Rx,0,8,7F,FF,00,00,00,00,69,2E,
683000,000001B0,false,Rx,0,7,81,10,7F,FF,00,00,2C,00,
683000,000001D0,false,Rx,0,8,42,52,84,89,08,F2,12,8C,
683000,000001E7,false,Rx,0,4,1A,40,68,23,00,00,00,00,
684000,00000039,false,Rx,0,2,00,39,00,00,00,00,00,00,
688000,00000158,false,Rx,0,8,20,91,06,CC,20,91,DE,18,
688000,00000188,false,Rx,0,6,05,05,80,08,00,49,00,00,
690000,000001C0,false,Rx,0,7,00,00,00,00,00,00,0B,00,
0,00000136,false,Rx,0,8,02,00,00,0C,00,00,00,3D,
0,0000013A,false,Rx,0,8,00,00,00,00,00,00,00,37,
0,0000013F,false,Rx,0,8,FF,82,00,78,00,00,00,3B,
0,00000156,false,Rx,0,6,00,22,00,00,07,3E,00,00,
691000,0000017C,false,Rx,0,8,00,00,06,CA,02,00,00,33,
691000,00000097,false,Rx,0,8,81,60,50,01,F9,00,00,38,
0,0000015A,false,Rx,0,8,00,00,FF,36,00,00,00,10,
0,0000018E,false,Rx,0,3,00,03,1D,00,00,00,00,00,
0,00000039,false,Rx,0,2,00,0C,00,00,00,00,00,00,
0,0000033D,false,Rx,0,4,00,00,00,05,00,00,00,00,
697000,000001A6,false,Rx,0,8,02,00,00,68,17,00,00,1E,
697000,00000294,false,Rx,0,8,00,15,00,03,EE,80,20,37,
698000,00000158,false,Rx,0,8,20,8D,06,CB,20,8D,DE,22,
699000,00000188,false,Rx,0,6,05,05,80,08,00,58,00,00,
700000,00000136,false,Rx,0,8,02,00,00,0C,00,00,00,00,
700000,0000013A,false,Rx,0,8,00,00,00,00,00,00,00,0A,
701000,0000013F,false,Rx,0,8,FF,82,00,78,00,28,00,04,
701000,00000156,false,Rx,0,6,00,22,00,01,07,00,00,00,
701000,0000017C,false,Rx,0,8,00,00,06,CE,02,00,00,02,
701000,00000097,false,Rx,0,8,81,60,50,01,FC,00,00,08,
701000,000001DC,false,Rx,0,4,02,06,CE,2A,00,00,00,00,
701000,0000015A,false,Rx,0,8,00,00,FF,36,00,00,00,2F,
701000,000001A4,false,Rx,0,8,00,69,00,00,00,00,00,37,
703000,0000018E,false,Rx,0,3,00,01,2E,00,00,00,00,00,
703000,000001AA,false,Rx,0,8,7F,FF,00,00,00,00,69,3D,
703000,000001B0,false,Rx,0,7,81,10,7F,FF,00,00,3B,00,
703000,000001D0,false,Rx,0,8,42,5E,84,95,09,2A,11,E2,
703000,000001E7,false,Rx,0,4,1A,40,69,31,00,00,00,00,
706000,00000039,false,Rx,0,2,00,1B,00,00,00,00,00,00,
708000,00000158,false,Rx,0,8,20,93,06,CA,20,93,DE,34,
709000,00000188,false,Rx,0,6,05,05,80,08,00,67,00,00,
710000,000001C0,false,Rx,0,7,00,00,00,00,00,00,1A,00,
0,00000136,false,Rx,0,8,02,00,00,0C,00,00,00,1F,
0,0000013A,false,Rx,0,8,00,00,00,00,00,00,00,19,
0,0000013F,false,Rx,0,8,FF,82,00,78,FF,F6,00,1A,
0,00000156,false,Rx,0,6,00,22,00,00,07,10,00,00,
0,0000017C,false,Rx,0,8,00,00,06,CD,02,00,00,12,
0,00000097,false,Rx,0,8,81,20,50,01,FA,00,00,1D,
711000,0000015A,false,Rx,0,8,00,00,FF,79,00,00,00,37,
711000,0000018E,false,Rx,0,3,00,06,38,00,00,00,00,00,
715000,000001A6,false,Rx,0,8,02,00,00,68,17,00,00,2D,
717000,00000039,false,Rx,0,2,00,2A,00,00,00,00,00,00,
718000,00000158,false,Rx,0,8,20,9A,06,CC,20,9A,DE,07,
718000,00000188,false,Rx,0,6,05,05,80,08,00,76,00,00,
720000,00000136,false,Rx,0,8,02,00,00,0C,00,00,00,2E,
720000,0000013A,false,Rx,0,8,00,00,00,00,00,00,00,28,
720000,0000013F,false,Rx,0,8,FF,82,00,78,00,00,00,2C,
721000,00000156,false,Rx,0,6,00,22,00,01,07,2E,00,00,
721000,0000017C,false,Rx,0,8,00,00,06,CD,02,00,00,21,
721000,00000097,false,Rx,0,8,81,20,50,01,FA,00,00,2C,
721000,000001DC,false,Rx,0,4,02,06,CD,3A,00,00,00,00,
722000,0000030C,false,Rx,0,8,22,43,C6,FF,00,80,80,2C,
722000,00000320,false,Rx,0,3,00,00,30,00,00,00,00,00,
0,00000324,false,Rx,0,8,79,2A,32,66,00,08,00,37,
0,0000015A,false,Rx,0,8,00,00,FF,79,00,00,00,0A,
722000,0000018E,false,Rx,0,3,00,03,0E,00,00,00,00,00,
0,000001A4,false,Rx,0,8,00,69,00,00,00,00,00,0A,
0,000001AA,false,Rx,0,8,7F,FF,00,00,00,00,69,00,
0,000001B0,false,Rx,0,7,80,D0,7F,FF,00,00,03,00,
0,000001D0,false,Rx,0,8,42,58,84,41,09,B2,11,B3,
723000,000001E7,false,Rx,0,4,1A,40,68,05,00,00,00,00,
0,0000037C,false,Rx,0,8,DE,00,DE,31,00,00,00,35,
0,00000400,false,Rx,0,5,00,00,00,00,13,00,00,00,
724000,0000040C,false,Rx,0,8,14,0A,11,06,06,01,00,19,
724000,00000454,false,Rx,0,6,4D,F3,02,3A,50,13,00,00,
0,00000465,false,Rx,0,7,FF,FF,FF,FF,FF,FF,14,00,
0,000006C1,false,Rx,0,1,05,00,00,00,00,00,00,00,
728000,00000039,false,Rx,0,2,00,39,00,00,00,00,00,00,
728000,00000158,false,Rx,0,8,20,90,06,CC,20,90,DE,1A,
729000,00000188,false,Rx,0,6,05,05,80,08,00,49,00,00,
730000,000001C0,false,Rx,0,7,00,00,00,00,00,00,29,00,
0,00000136,false,Rx,0,8,02,00,00,0C,00,00,00,3D,
0,0000013A,false,Rx,0,8,00,00,00,00,00,00,00,37,
0,0000013F,false,Rx,0,8,FF,82,00,77,00,14,00,37,
0,00000156,false,Rx,0,6,00,22,00,00,07,3E,00,00,
731000,0000017C,false,Rx,0,8,00,00,06,CF,02,00,00,3E,
731000,00000097,false,Rx,0,8,81,20,50,01,FB,00,00,3A,
732000,0000015A,false,Rx,0,8,00,00,FF,79,00,00,00,19,
732000,0000018E,false,Rx,0,3,00,04,1C,00,00,00,00,00,
737000,000001A6,false,Rx,0,8,02,00,00,68,18,00,00,3B,
737000,00000294,false,Rx,0,8,00,15,00,03,EE,80,20,0A,
0,00000309,false,Rx,0,8,22,33,00,00,00,57,00,7F,
0,00000374,false,Rx,0,7,00,00,00,00,00,00,37,00,
738000,00000377,false,Rx,0,8,04,10,58,FA,2A,00,82,33,
738000,00000378,false,Rx,0,8,07,90,F2,23,50,20,00,36,
0,00000158,false,Rx,0,8,20,8A,06,CA,20,8A,DE,29,
0,00000188,false,Rx,0,6,05,05,80,08,00,58,00,00,
739000,00000039,false,Rx,0,2,00,0C,00,00,00,00,00,00,
740000,00000136,false,Rx,0,8,02,00,00,0C,00,00,00,00,
740000,0000013A,false,Rx,0,8,00,00,00,00,00,00,00,0A,
741000,0000013F,false,Rx,0,8,FF,82,00,77,00,00,00,0F,
741000,00000156,false,Rx,0,6,00,22,00,00,07,01,00,00,
0,0000017C,false,Rx,0,8,00,00,06,CF,02,00,00,01,
0,00000097,false,Rx,0,8,81,60,50,01,FE,00,00,06,
0,000001DC,false,Rx,0,4,02,06,CF,0B,00,00,00,00,
742000,0000015A,false,Rx,0,8,00,00,FF,79,00,00,00,28,
0,000001A4,false,Rx,0,8,00,69,00,00,00,00,00,19,
0,0000018E,false,Rx,0,3,00,02,2D,00,00,00,00,00,
0,000001AA,false,Rx,0,8,7F,FF,00,00,00,00,69,1F,
0,000001B0,false,Rx,0,7,80,D0,7F,FF,00,00,12,00,
0,000001D0,false,Rx,0,8,42,3E,84,65,08,BA,10,3B,
0,000001E7,false,Rx,0,4,1A,40,68,14,00,00,00,00,
748000,00000158,false,Rx,0,8,20,87,06,C7,20,87,DE,31,
749000,00000188,false,Rx,0,6,05,05,80,08,00,67,00,00,
0,000001C0,false,Rx,0,7,00,00,00,00,00,00,38,00,
0,00000136,false,Rx,0,8,02,00,00,0C,00,00,00,1F,
0,00000039,false,Rx,0,2,00,1B,00,00,00,00,00,00,
0,0000013A,false,Rx,0,8,00,00,00,00,00,00,00,19,
0,0000013F,false,Rx,0,8,FF,82,00,78,FF,CE,00,15,
751000,00000156,false,Rx,0,6,00,22,00,01,07,1F,00,00,
0,0000017C,false,Rx,0,8,00,00,06,CA,02,00,00,15,
0,00000097,false,Rx,0,8,81,60,50,01,FC,00,00,17,
0,0000015A,false,Rx,0,8,00,00,FF,79,00,00,00,37,
0,0000018E,false,Rx,0,3,00,0A,34,00,00,00,00,00,
756000,000001A6,false,Rx,0,8,02,00,00,68,18,00,00,0E,
0,00000158,false,Rx,0,8,20,89,06,C9,20,89,DF,0D,
0,00000188,false,Rx,0,6,05,05,80,08,00,76,00,00,
0,00000136,false,Rx,0,8,02,00,00,0C,00,00,00,2E,
0,0000013A,false,Rx,0,8,00,00,00,00,00,00,00,28,
760000,0000013F,false,Rx,0,8,FF,82,00,78,00,00,00,2C,
760000,00000156,false,Rx,0,6,00,22,00,01,07,2E,00,00,
0,0000017C,false,Rx,0,8,00,00,06,CA,02,00,00,24,
0,00000039,false,Rx,0,2,00,2A,00,00,00,00,00,00,
0,00000097,false,Rx,0,8,81,60,50,01,FB,00,00,27,
0,000001DC,false,Rx,0,4,02,06,CA,1F,00,00,00,00,
762000,0000015A,false,Rx,0,8,00,00,FF,36,00,00,00,01,
762000,000001A4,false,Rx,0,8,00,69,00,00,00,00,00,28,
0,0000018E,false,Rx,0,3,00,03,0E,00,00,00,00,00,
0,000001AA,false,Rx,0,8,7F,FF,00,00,00,00,69,2E,
0,000001B0,false,Rx,0,7,81,10,7F,FF,00,00,2C,00,
763000,000001D0,false,Rx,0,8,42,38,84,89,08,A2,10,70,
763000,000001E7,false,Rx,0,4,1A,40,69,22,00,00,00,00,
768000,00000158,false,Rx,0,8,20,82,06,CA,20,82,DF,19,
768000,00000188,false,Rx,0,6,05,05,80,08,00,49,00,00,
769000,000001C0,false,Rx,0,7,00,00,00,00,00,00,0B,00,
770000,00000136,false,Rx,0,8,02,00,00,0C,00,00,00,3D,
770000,0000013A,false,Rx,0,8,00,00,00,00,00,00,00,37,
770000,0000013F,false,Rx,0,8,FF,82,00,78,00,00,00,3B,
770000,00000156,false,Rx,0,6,00,22,00,00,07,3E,00,00,
770000,0000017C,false,Rx,0,8,00,00,06,CA,02,00,00,33,
771000,00000097,false,Rx,0,8,81,60,50,01,FA,00,00,37,
0,0000015A,false,Rx,0,8,00,00,FF,36,00,00,00,10,
0,00000039,false,Rx,0,2,00,39,00,00,00,00,00,00,
0,0000018E,false,Rx,0,3,00,00,10,00,00,00,00,00,
776000,000001A6,false,Rx,0,8,02,00,00,68,18,00,00,1D,
776000,00000294,false,Rx,0,8,00,15,00,03,EE,80,20,19,
778000,00000158,false,Rx,0,8,20,87,06,C7,20,87,DF,21,
778000,00000188,false,Rx,0,6,05,05,80,08,00,58,00,00,
780000,00000136,false,Rx,0,8,02,00,00,0C,00,00,00,00,
780000,0000013A,false,Rx,0,8,00,00,00,00,00,00,00,0A,
780000,0000013F,false,Rx,0,8,FF,83,00,79,FF,EC,00,04,
780000,00000156,false,Rx,0,6,00,22,00,01,07,00,00,00,
780000,0000017C,false,Rx,0,8,00,00,06,C8,02,00,00,08,
781000,00000097,false,Rx,0,8,81,20,50,01,FB,00,00,0D,
781000,000001DC,false,Rx,0,4,02,06,C8,20,00,00,00,00,
782000,0000015A,false,Rx,0,8,00,00,FF,36,00,00,00,2F,
782000,000001A4,false,Rx,0,8,00,6A,00,00,00,00,00,36,
782000,0000018E,false,Rx,0,3,00,04,2B,00,00,00,00,00,
782000,000001AA,false,Rx,0,8,7F,FF,00,00,00,00,6A,3C,
782000,000001B0,false,Rx,0,7,81,10,7F,FF,00,00,3B,00,
782000,00000039,false,Rx,0,2,00,0C,00,00,00,00,00,00,
0,000001D0,false,Rx,0,8,42,3E,84,19,08,DA,11,75,
0,000001E7,false,Rx,0,4,1A,40,68,32,00,00,00,00,
783000,00000305,false,Rx,0,2,0E,11,00,00,00,00,00,00,
0,00000158,false,Rx,0,8,20,8A,06,C9,20,8A,DF,38,
0,00000188,false,Rx,0,6,05,05,80,08,00,67,00,00,
789000,000001C0,false,Rx,0,7,00,00,00,00,00,00,1A,00,
789000,00000136,false,Rx,0,8,02,00,00,0C,00,00,00,1F,
791000,0000013A,false,Rx,0,8,00,00,00,00,00,00,00,19,
791000,0000013F,false,Rx,0,8,FF,83,00,79,00,00,00,1B,
791000,00000156,false,Rx,0,6,00,22,00,01,07,1F,00,00,
791000,0000017C,false,Rx,0,8,00,00,06,C8,02,00,00,17,
791000,00000097,false,Rx,0,8,81,60,50,01,FB,00,00,18,
0,0000015A,false,Rx,0,8,00,00,FF,36,00,00,00,3E,
0,0000018E,false,Rx,0,3,00,04,3A,00,00,00,00,00,
794000,00000039,false,Rx,0,2,00,1B,00,00,00,00,00,00,
795000,0000033D,false,Rx,0,4,00,00,00,14,00,00,00,00,
796000,000001A6,false,Rx,0,8,02,00,00,68,18,00,00,2C,
798000,00000158,false,Rx,0,8,20,87,06,C8,20,87,DF,02,
798000,00000188,false,Rx,0,6,05,05,80,08,00,76,00,00,
800000,00000136,false,Rx,0,8,02,00,00,0C,00,00,00,2E,
800000,0000013A,false,Rx,0,8,00,00,00,00,00,00,00,28,
800000,0000013F,false,Rx,0,8,FF,82,00,78,00,1E,00,2D,
800000,00000156,false,Rx,0,6,00,22,00,02,07,2D,00,00,
801000,0000017C,false,Rx,0,8,00,00,06,CB,02,00,00,23,
801000,000001DC,false,Rx,0,4,02,06,CB,3C,00,00,00,00,
801000,00000097,false,Rx,0,8,81,20,40,01,F8,00,00,2F,
802000,0000015A,false,Rx,0,8,00,00,FF,36,00,00,00,01,
802000,000001A4,false,Rx,0,8,00,69,00,00,00,00,00,0A,
802000,0000018E,false,Rx,0,3,00,03,0E,00,00,00,00,00,
802000,000001AA,false,Rx,0,8,7F,FF,00,00,00,00,69,00,
802000,000001B0,false,Rx,0,7,81,10,7F,FF,00,00,0E,00,
803000,000001D0,false,Rx,0,8,42,32,84,0D,08,F2,10,75,
803000,000001E7,false,Rx,0,4,1A,40,68,05,00,00,00,00,
804000,00000039,false,Rx,0,2,00,2A,00,00,00,00,00,00,
808000,00000158,false,Rx,0,8,20,7D,06,C7,20,7D,DF,18,
808000,00000188,false,Rx,0,6,05,05,80,08,00,49,00,00,
809000,000001C0,false,Rx,0,7,00,00,00,00,00,00,29,00,
809000,00000136,false,Rx,0,8,02,00,00,0C,00,00,00,3D,
810000,0000013A,false,Rx,0,8,00,00,00,00,00,00,00,37,
810000,0000013F,false,Rx,0,8,FF,82,00,78,00,00,00,3B,
810000,00000156,false,Rx,0,6,00,22,00,00,07,3E,00,00,
810000,0000017C,false,Rx,0,8,00,00,06,CB,02,00,00,32,
811000,00000097,false,Rx,0,8,81,20,40,01,F9,00,00,3D,
0,0000015A,false,Rx,0,8,00,00,FF,36,00,00,00,10,
0,0000018E,false,Rx,0,3,00,00,10,00,00,00,00,00,
815000,00000039,false,Rx,0,2,00,39,00,00,00,00,00,00,
816000,000001A6,false,Rx,0,8,02,00,00,68,17,00,00,3C,
816000,00000294,false,Rx,0,8,00,15,00,03,EE,80,20,28,
818000,00000158,false,Rx,0,8,20,79,06,C7,20,79,DF,2F,
818000,00000188,false,Rx,0,6,05,05,80,08,00,58,00,00,
0,00000136,false,Rx,0,8,02,00,00,0C,00,00,00,00,
0,0000013A,false,Rx,0,8,00,00,00,00,00,00,00,0A,
0,0000013F,false,Rx,0,8,FF,83,00,79,FF,EC,00,04,
0,00000156,false,Rx,0,6,00,22,00,01,07,00,00,00,
0,0000017C,false,Rx,0,8,00,00,06,C9,02,00,00,07,
820000,00000097,false,Rx,0,8,81,20,40,01,FD,00,00,0C,
0,000001DC,false,Rx,0,4,02,06,C9,01,00,00,00,00,
0,0000030C,false,Rx,0,8,22,36,C6,FF,00,80,80,39,
821000,00000320,false,Rx,0,3,00,00,03,00,00,00,00,00,
0,00000324,false,Rx,0,8,79,2A,32,66,00,03,00,0F,
0,0000015A,false,Rx,0,8,00,00,FF,79,00,00,00,28,
0,0000018E,false,Rx,0,3,00,04,2B,00,00,00,00,00,
0,000001A4,false,Rx,0,8,00,69,00,00,00,00,00,19,
0,000001AA,false,Rx,0,8,7F,FF,00,00,00,00,69,1F,
823000,000001B0,false,Rx,0,7,80,D0,7F,FF,00,00,12,00,
0,000001D0,false,Rx,0,8,42,18,84,19,08,8A,10,37,
0,000001E7,false,Rx,0,4,1A,00,68,18,00,00,00,00,
0,0000037C,false,Rx,0,8,E1,00,E1,31,00,00,00,00,
824000,000003D7,false,Rx,0,8,B0,00,00,00,00,00,00,06,
824000,00000406,false,Rx,0,5,00,00,00,03,38,00,00,00,
827000,00000039,false,Rx,0,2,00,0C,00,00,00,00,00,00,
828000,00000158,false,Rx,0,8,20,83,06,C7,20,83,DF,38,
828000,00000188,false,Rx,0,6,05,05,80,08,00,67,00,00,
830000,000001C0,false,Rx,0,7,00,00,00,00,00,00,38,00,
830000,00000136,false,Rx,0,8,02,00,00,0C,00,00,00,1F,
830000,0000013A,false,Rx,0,8,00,00,00,00,00,00,00,19,
831000,0000013F,false,Rx,0,8,FF,83,00,79,00,00,00,1B,
831000,00000156,false,Rx,0,6,00,22,00,00,07,10,00,00,
831000,0000017C,false,Rx,0,8,00,00,06,C9,02,00,00,16,
831000,00000097,false,Rx,0,8,81,60,50,01,FE,00,00,15,
832000,0000015A,false,Rx,0,8,00,00,FF,79,00,00,00,37,
832000,0000018E,false,Rx,0,3,00,02,3C,00,00,00,00,00,
837000,000001A6,false,Rx,0,8,02,00,00,68,18,00,00,0E,
837000,00000309,false,Rx,0,8,22,1C,00,00,00,57,00,4B,
837000,00000374,false,Rx,0,7,00,00,00,00,00,00,0A,00,
837000,00000377,false,Rx,0,8,04,10,58,FA,2A,00,82,06,
837000,00000378,false,Rx,0,8,07,90,F2,23,50,20,00,09,
838000,00000405,false,Rx,0,8,00,02,00,00,00,00,00,2B,
0,00000428,false,Rx,0,7,00,00,00,00,00,00,28,00,
0,00000039,false,Rx,0,2,00,1B,00,00,00,00,00,00,
0,00000158,false,Rx,0,8,20,75,06,C8,20,75,DF,08,
838000,00000188,false,Rx,0,6,05,05,80,08,00,76,00,00,
840000,00000136,false,Rx,0,8,02,00,00,0C,00,00,00,2E,
840000,0000013A,false,Rx,0,8,00,00,00,00,00,00,00,28,
841000,0000013F,false,Rx,0,8,FF,82,00,79,00,00,00,2B,
841000,00000156,false,Rx,0,6,00,22,00,00,07,2F,00,00,
841000,0000017C,false,Rx,0,8,00,00,06,C9,02,00,00,25,
841000,00000097,false,Rx,0,8,81,60,50,01,FC,00,00,26,
841000,000001DC,false,Rx,0,4,02,06,C9,10,00,00,00,00,
842000,0000015A,false,Rx,0,8,00,00,FF,36,00,00,00,01,
842000,000001A4,false,Rx,0,8,00,69,00,00,00,00,00,28,
842000,0000018E,false,Rx,0,3,00,04,0D,00,00,00,00,00,
843000,000001AA,false,Rx,0,8,7F,FF,00,00,00,00,69,2E,
843000,000001B0,false,Rx,0,7,81,10,7F,FF,00,00,2C,00,
843000,000001D0,false,Rx,0,8,42,2C,84,19,08,02,0F,9E,
843000,000001E7,false,Rx,0,4,1A,40,68,23,00,00,00,00,
848000,00000158,false,Rx,0,8,20,76,06,C5,20,76,DF,18,
848000,00000188,false,Rx,0,6,05,05,80,08,00,49,00,00,
849000,00000039,false,Rx,0,2,00,2A,00,00,00,00,00,00,
850000,000001C0,false,Rx,0,7,00,00,00,00,00,00,0B,00,
850000,00000136,false,Rx,0,8,02,00,00,0C,00,00,00,3D,
850000,0000013A,false,Rx,0,8,00,00,00,00,00,00,00,37,
851000,0000013F,false,Rx,0,8,FF,83,00,79,FF,E2,00,3B,
0,00000156,false,Rx,0,6,00,22,00,01,07,3D,00,00,
0,0000017C,false,Rx,0,8,00,00,06,C6,02,00,00,37,
0,00000097,false,Rx,0,8,81,60,50,01,FB,00,00,36,
0,0000015A,false,Rx,0,8,00,00,FF,36,00,00,00,10,
0,0000018E,false,Rx,0,3,00,00,10,00,00,00,00,00,
857000,000001A6,false,Rx,0,8,02,00,00,68,18,00,00,1D,
857000,00000294,false,Rx,0,8,00,15,00,03,EE,80,20,37,
858000,00000158,false,Rx,0,8,20,80,06,C6,20,80,DF,20,
858000,00000188,false,Rx,0,6,05,05,80,08,00,58,00,00,
0,00000136,false,Rx,0,8,02,00,00,0C,00,00,00,00,
0,00000039,false,Rx,0,2,00,39,00,00,00,00,00,00,
860000,0000013A,false,Rx,0,8,00,00,00,00,00,00,00,0A,
861000,0000013F,false,Rx,0,8,FF,83,00,79,00,00,00,0C,
0,00000156,false,Rx,0,6,00,22,00,01,07,00,00,00,
0,0000017C,false,Rx,0,8,00,00,06,C6,02,00,00,0A,
0,00000097,false,Rx,0,8,81,60,50,01,FA,00,00,0A,
862000,000001DC,false,Rx,0,4,02,06,C6,22,00,00,00,00,
862000,00000421,false,Rx,0,5,00,00,00,01,3D,00,00,00,
862000,0000015A,false,Rx,0,8,00,00,FF,36,00,00,00,2F,
862000,000001A4,false,Rx,0,8,00,69,00,00,00,00,00,37,
862000,0000018E,false,Rx,0,3,00,06,29,00,00,00,00,00,
863000,000001AA,false,Rx,0,8,7F,FF,00,00,00,00,69,3D,
863000,000001B0,false,Rx,0,7,81,10,7F,FF,00,00,3B,00,
0,000001D0,false,Rx,0,8,42,20,83,F5,08,8A,11,E9,
0,000001E7,false,Rx,0,4,1A,40,68,32,00,00,00,00,
868000,00000158,false,Rx,0,8,20,7B,06,C5,20,7B,DF,3C,
868000,00000188,false,Rx,0,6,05,05,80,08,00,67,00,00,
870000,000001C0,false,Rx,0,7,00,00,00,00,00,00,1A,00,
0,00000136,false,Rx,0,8,02,00,00,0C,00,00,00,1F,
0,0000013A,false,Rx,0,8,00,00,00,00,00,00,00,19,
871000,0000013F,false,Rx,0,8,FF,83,00,79,00,14,00,16,
871000,00000156,false,Rx,0,6,00,22,00,01,07,1F,00,00,
0,0000017C,false,Rx,0,8,00,00,06,C8,02,00,00,17,
0,00000039,false,Rx,0,2,00,0C,00,00,00,00,00,00,
0,00000097,false,Rx,0,8,81,60,50,01,FC,00,00,17,
0,0000015A,false,Rx,0,8,00,00,FF,36,00,00,00,3E,
0,0000018E,false,Rx,0,3,00,03,3B,00,00,00,00,00,
876000,000001A6,false,Rx,0,8,02,00,00,68,18,00,00,2C,
878000,00000158,false,Rx,0,8,20,78,06,C5,20,78,DF,05,
878000,00000188,false,Rx,0,6,05,05,80,08,00,76,00,00,
0,00000136,false,Rx,0,8,02,00,00,0C,00,00,00,2E,
0,0000013A,false,Rx,0,8,00,00,00,00,00,00,00,28,
0,0000013F,false,Rx,0,8,FF,82,00,79,00,00,00,2B,
0,00000156,false,Rx,0,6,00,22,00,01,07,2E,00,00,
881000,0000017C,false,Rx,0,8,00,00,06,C8,02,00,00,26,
881000,00000097,false,Rx,0,8,81,60,50,01,FA,00,00,28,
881000,000001DC,false,Rx,0,4,02,06,C8,3F,00,00,00,00,
0,0000015A,false,Rx,0,8,00,00,FF,79,00,00,00,0A,
0,00000039,false,Rx,0,2,00,1B,00,00,00,00,00,00,
0,0000018E,false,Rx,0,3,00,05,0C,00,00,00,00,00,
883000,000001A4,false,Rx,0,8,00,69,00,00,00,00,00,0A,
883000,000001AA,false,Rx,0,8,7F,FF,00,00,00,00,69,00,
0,000001B0,false,Rx,0,7,81,10,7F,FF,00,00,0E,00,
0,000001D0,false,Rx,0,8,42,12,83,F5,08,3A,10,75,
0,000001E7,false,Rx,0,4,1A,40,68,05,00,00,00,00,
888000,00000305,false,Rx,0,2,0E,20,00,00,00,00,00,00,
888000,00000158,false,Rx,0,8,20,74,06,C5,20,74,DF,1C,
889000,00000188,false,Rx,0,6,05,05,80,08,00,49,00,00,
889000,000001C0,false,Rx,0,7,00,00,00,00,00,00,29,00,
889000,00000136,false,Rx,0,8,02,00,00,0C,00,00,00,3D,
889000,0000013A,false,Rx,0,8,00,00,00,00,00,00,00,37,
0,0000013F,false,Rx,0,8,FF,83,00,79,FF,EC,00,31,
0,00000156,false,Rx,0,6,00,22,00,01,07,3D,00,00,
890000,0000017C,false,Rx,0,8,00,00,06,C6,02,00,00,37,
891000,00000097,false,Rx,0,8,81,60,50,01,FA,00,00,37,
0,0000015A,false,Rx,0,8,00,00,FF,79,00,00,00,19,
0,0000018E,false,Rx,0,3,00,06,1A,00,00,00,00,00,
892000,00000039,false,Rx,0,2,00,2A,00,00,00,00,00,00,
895000,0000033D,false,Rx,0,4,00,00,00,23,00,00,00,00,
896000,000001A6,false,Rx,0,8,02,00,00,68,18,00,00,3B,
896000,00000294,false,Rx,0,8,00,15,00,03,EE,80,20,0A,
0,00000158,false,Rx,0,8,20,72,06,C4,20,72,DF,20,
0,00000188,false,Rx,0,6,05,05,80,08,00,58,00,00,
900000,00000136,false,Rx,0,8,02,00,00,0C,00,00,00,00,
900000,0000013A,false,Rx,0,8,00,00,00,00,00,00,00,0A,
0,0000013F,false,Rx,0,8,FF,83,00,79,00,0A,00,02,
0,00000156,false,Rx,0,6,00,22,00,00,07,01,00,00,
901000,0000017C,false,Rx,0,8,00,00,06,C7,02,00,00,09,
0,00000097,false,Rx,0,8,81,20,50,01,FC,00,00,0C,
0,000001DC,false,Rx,0,4,02,06,C7,03,00,00,00,00,
0,0000015A,false,Rx,0,8,00,00,FF,79,00,00,00,28,
0,000001A4,false,Rx,0,8,00,69,00,00,00,00,00,19,
0,0000018E,false,Rx,0,3,00,06,29,00,00,00,00,00,
902000,000001AA,false,Rx,0,8,7F,FF,00,00,00,00,69,1F,
0,000001B0,false,Rx,0,7,81,10,7F,FF,00,00,1D,00,
0,000001D0,false,Rx,0,8,42,12,83,D1,08,BA,10,0A,
903000,000001E7,false,Rx,0,4,1A,00,68,18,00,00,00,00,
903000,00000039,false,Rx,0,2,00,39,00,00,00,00,00,00,
908000,00000158,false,Rx,0,8,20,67,06,C3,20,67,DF,38,
908000,00000188,false,Rx,0,6,05,05,80,08,00,67,00,00,
909000,000001C0,false,Rx,0,7,00,00,00,00,00,00,38,00,
910000,00000136,false,Rx,0,8,02,00,00,0C,00,00,00,1F,
910000,0000013A,false,Rx,0,8,00,00,00,00,00,00,00,19,
910000,0000013F,false,Rx,0,8,FF,83,00,79,00,00,00,1B,
910000,00000156,false,Rx,0,6,00,22,00,01,07,1F,00,00,
910000,0000017C,false,Rx,0,8,00,00,06,C7,02,00,00,18,
911000,00000097,false,Rx,0,8,81,60,50,01,FE,00,00,15,
0,0000015A,false,Rx,0,8,00,00,FF,79,00,00,00,37,
0,0000018E,false,Rx,0,3,00,01,3D,00,00,00,00,00,
914000,00000039,false,Rx,0,2,00,0C,00,00,00,00,00,00,
916000,000001A6,false,Rx,0,8,02,00,00,68,19,00,00,0D,
0,00000158,false,Rx,0,8,20,6D,06,C3,20,6D,DF,0F,
0,00000188,false,Rx,0,6,05,05,80,08,00,76,00,00,
920000,00000136,false,Rx,0,8,02,00,00,0C,00,00,00,2E,
920000,0000013A,false,Rx,0,8,00,00,00,00,00,00,00,28,
0,0000013F,false,Rx,0,8,FF,83,00,79,FF,E2,00,2C,
0,00000156,false,Rx,0,6,00,22,00,00,07,2F,00,00,
0,0000017C,false,Rx,0,8,00,00,06,C4,02,00,00,2A,
921000,000001DC,false,Rx,0,4,02,06,C4,15,00,00,00,00,
921000,00000097,false,Rx,0,8,81,60,50,01,FB,00,00,27,
921000,0000030C,false,Rx,0,8,22,2A,C6,FF,00,80,80,09,
921000,00000320,false,Rx,0,3,00,00,12,00,00,00,00,00,
922000,00000324,false,Rx,0,8,79,2A,32,66,00,06,00,1B,
0,0000015A,false,Rx,0,8,00,00,FF,79,00,00,00,0A,
0,0000018E,false,Rx,0,3,00,02,0F,00,00,00,00,00,
922000,000001A4,false,Rx,0,8,00,69,00,00,00,00,00,28,
922000,000001AA,false,Rx,0,8,7F,FF,00,00,00,00,69,2E,
923000,000001B0,false,Rx,0,7,81,10,7F,FF,00,00,2C,00,
923000,000001D0,false,Rx,0,8,42,00,83,DD,07,B2,0E,94,
923000,000001E7,false,Rx,0,4,1A,00,68,27,00,00,00,00,
923000,0000037C,false,Rx,0,8,DF,00,DF,31,00,00,00,15,
926000,00000039,false,Rx,0,2,00,1B,00,00,00,00,00,00,
928000,00000158,false,Rx,0,8,20,72,06,C6,20,72,DF,1F,
928000,00000188,false,Rx,0,6,05,05,80,08,00,49,00,00,
0,000001C0,false,Rx,0,7,00,00,00,00,00,00,0B,00,
0,00000136,false,Rx,0,8,02,00,00,0C,00,00,00,3D,
0,0000013A,false,Rx,0,8,00,00,00,00,00,00,00,37,
0,0000013F,false,Rx,0,8,FF,83,00,79,00,00,00,39,
0,00000156,false,Rx,0,6,00,22,00,01,07,3D,00,00,
0,0000017C,false,Rx,0,8,00,00,06,C4,02,00,00,39,
0,00000097,false,Rx,0,8,81,60,50,01,FC,00,00,35,
932000,0000015A,false,Rx,0,8,00,00,FF,36,00,00,00,10,
932000,0000018E,false,Rx,0,3,00,04,1C,00,00,00,00,00,
937000,000001A6,false,Rx,0,8,02,00,00,68,18,00,00,1D,
937000,00000294,false,Rx,0,8,00,15,00,03,EE,80,20,19,
0,00000309,false,Rx,0,8,22,05,00,00,00,57,00,52,
0,00000039,false,Rx,0,2,00,2A,00,00,00,00,00,00,
0,00000377,false,Rx,0,8,04,10,58,FA,2A,00,82,15,
0,00000374,false,Rx,0,7,00,00,00,00,00,00,19,00,
938000,00000378,false,Rx,0,8,07,90,F2,23,50,20,00,18,
0,00000158,false,Rx,0,8,20,6B,06,C2,20,6B,DF,22,
0,00000188,false,Rx,0,6,05,05,80,08,00,58,00,00,
940000,00000136,false,Rx,0,8,02,00,00,0C,00,00,00,00,
940000,0000013A,false,Rx,0,8,00,00,00,00,00,00,00,0A,
941000,0000013F,false,Rx,0,8,FF,83,00,79,00,14,00,07,
941000,00000156,false,Rx,0,6,00,22,00,00,07,01,00,00,
0,0000017C,false,Rx,0,8,00,00,06,C6,02,00,00,0A,
0,00000097,false,Rx,0,8,81,60,50,01,FB,00,00,09,
941000,000001DC,false,Rx,0,4,02,06,C6,22,00,00,00,00,
942000,0000015A,false,Rx,0,8,00,00,FF,36,00,00,00,2F,
942000,000001A4,false,Rx,0,8,00,69,00,00,00,00,00,37,
943000,0000018E,false,Rx,0,3,00,04,2B,00,00,00,00,00,
943000,000001AA,false,Rx,0,8,7F,FF,00,00,00,00,69,3D,
943000,000001B0,false,Rx,0,7,81,10,7F,FF,00,00,3B,00,
943000,000001D0,false,Rx,0,8,42,06,83,F5,08,1A,10,74,
943000,000001E7,false,Rx,0,4,1A,40,68,32,00,00,00,00,
0,00000039,false,Rx,0,2,00,39,00,00,00,00,00,00,
0,00000158,false,Rx,0,8,20,6A,06,C2,20,6A,DF,33,
948000,00000188,false,Rx,0,6,05,05,80,08,00,67,00,00,
949000,000001C0,false,Rx,0,7,00,00,00,00,00,00,1A,00,
949000,00000136,false,Rx,0,8,02,00,00,0C,00,00,00,1F,
949000,0000013A,false,Rx,0,8,00,00,00,00,00,00,00,19,
0,0000013F,false,Rx,0,8,FF,83,00,79,00,00,00,1B,
0,00000156,false,Rx,0,6,00,22,00,00,07,10,00,00,
0,0000017C,false,Rx,0,8,00,00,06,C6,02,00,00,19,
0,00000097,false,Rx,0,8,81,60,50,01,FA,00,00,19,
951000,0000015A,false,Rx,0,8,00,00,FF,36,00,00,00,3E,
951000,0000018E,false,Rx,0,3,00,00,3E,00,00,00,00,00,
956000,000001A6,false,Rx,0,8,02,00,00,68,18,00,00,2C,
0,00000158,false,Rx,0,8,20,67,06,C5,20,67,DF,09,
0,00000188,false,Rx,0,6,05,05,80,08,00,76,00,00,
958000,00000039,false,Rx,0,2,00,0C,00,00,00,00,00,00,
960000,00000136,false,Rx,0,8,02,00,00,0C,00,00,00,2E,
960000,0000013A,false,Rx,0,8,00,00,00,00,00,00,00,28,
0,0000013F,false,Rx,0,8,FF,83,00,79,FF,F6,00,27,
0,00000156,false,Rx,0,6,00,22,00,01,07,2E,00,00,
960000,0000017C,false,Rx,0,8,00,00,06,C5,02,00,00,29,
960000,000001DC,false,Rx,0,4,02,06,C5,32,00,00,00,00,
961000,00000097,false,Rx,0,8,81,60,50,01,FC,00,00,26,
962000,0000015A,false,Rx,0,8,00,00,FF,79,00,00,00,0A,
962000,000001A4,false,Rx,0,8,00,69,00,00,00,00,00,0A,
962000,0000018E,false,Rx,0,3,00,02,0F,00,00,00,00,00,
962000,000001AA,false,Rx,0,8,7F,FF,00,00,00,00,69,00,
0,000001B0,false,Rx,0,7,81,10,7F,FF,00,00,0E,00,
0,000001D0,false,Rx,0,8,42,06,83,F5,07,EA,0F,6B,
0,000001E7,false,Rx,0,4,1A,00,68,09,00,00,00,00,
968000,00000158,false,Rx,0,8,20,74,06,C6,20,74,DF,1B,
968000,00000188,false,Rx,0,6,05,05,80,08,00,49,00,00,
0,000001C0,false,Rx,0,7,00,00,00,00,00,00,29,00,
0,00000136,false,Rx,0,8,02,00,00,0C,00,00,00,3D,
970000,00000039,false,Rx,0,2,00,1B,00,00,00,00,00,00,
970000,0000013A,false,Rx,0,8,00,00,00,00,00,00,00,37,
0,0000013F,false,Rx,0,8,FF,83,00,79,00,14,00,34,
0,00000156,false,Rx,0,6,00,22,00,01,07,3D,00,00,
970000,0000017C,false,Rx,0,8,00,00,06,C7,02,00,00,36,
971000,00000097,false,Rx,0,8,81,60,50,01,FB,00,00,36,
0,0000015A,false,Rx,0,8,00,00,FF,79,00,00,00,19,
0,0000018E,false,Rx,0,3,00,03,1D,00,00,00,00,00,
0,000001A6,false,Rx,0,8,02,00,00,68,18,00,00,3B,
0,00000294,false,Rx,0,8,00,15,00,03,EE,80,20,28,
978000,00000158,false,Rx,0,8,20,6B,06,C3,20,6B,DF,21,
978000,00000188,false,Rx,0,6,05,05,80,08,00,58,00,00,
980000,00000136,false,Rx,0,8,02,00,00,0C,00,00,00,00,
980000,0000013A,false,Rx,0,8,00,00,00,00,00,00,00,0A,
0,0000013F,false,Rx,0,8,FF,83,00,79,00,00,00,0C,
0,00000156,false,Rx,0,6,00,22,00,00,07,01,00,00,
980000,0000017C,false,Rx,0,8,00,00,06,C7,02,00,00,09,
980000,00000039,false,Rx,0,2,00,2A,00,00,00,00,00,00,
0,00000097,false,Rx,0,8,81,60,50,01,FB,00,00,09,
0,000001DC,false,Rx,0,4,02,06,C7,03,00,00,00,00,
0,0000015A,false,Rx,0,8,00,00,FF,79,00,00,00,28,
0,000001A4,false,Rx,0,8,00,69,00,00,00,00,00,19,
0,0000018E,false,Rx,0,3,00,04,2B,00,00,00,00,00,
982000,000001AA,false,Rx,0,8,7F,FF,00,00,00,00,69,1F,
982000,000001B0,false,Rx,0,7,81,10,7F,FF,00,00,1D,00,
982000,000001D0,false,Rx,0,8,42,06,83,91,08,6A,0F,6C,
983000,000001E7,false,Rx,0,4,1A,00,68,18,00,00,00,00,
988000,00000158,false,Rx,0,8,20,5F,06,C0,20,5F,DF,3D,
988000,00000188,false,Rx,0,6,05,05,80,08,00,67,00,00,
989000,000001C0,false,Rx,0,7,00,00,00,00,00,00,38,00,
990000,00000136,false,Rx,0,8,02,00,00,0C,00,00,00,1F,
990000,0000013A,false,Rx,0,8,00,00,00,00,00,00,00,19,
990000,0000013F,false,Rx,0,8,FF,83,00,7A,FF,D8,00,17,
990000,00000156,false,Rx,0,6,00,22,00,01,07,1F,00,00,
990000,0000017C,false,Rx,0,8,00,00,06,C3,02,00,00,1C,
991000,00000097,false,Rx,0,8,81,60,50,01,FC,00,00,17,
991000,0000018E,false,Rx,0,3,00,02,3C,00,00,00,00,00,
0,0000015A,false,Rx,0,8,00,00,FF,79,00,00,00,37,
0,00000039,false,Rx,0,2,00,39,00,00,00,00,00,00,
993000,00000305,false,Rx,0,2,0E,3F,00,00,00,00,00,00,
995000,0000033D,false,Rx,0,4,00,00,00,32,00,00,00,00,
996000,000001A6,false,Rx,0,8,02,00,00,68,18,00,00,0E,
998000,00000158,false,Rx,0,8,20,60,06,C2,20,60,DF,0A,
998000,00000188,false,Rx,0,6,05,05,80,08,00,76,00,00,
999000,00000136,false,Rx,0,8,02,00,00,0C,00,00,00,2E,
0,0000013A,false,Rx,0,8,00,00,00,00,00,00,00,28,
0,0000013F,false,Rx,0,8,FF,83,00,7A,00,00,00,29,
0,00000156,false,Rx,0,6,00,22,00,01,07,2E,00,00,
0,0000017C,false,Rx,0,8,00,00,06,C3,02,00,00,2B,
0,000001DC,false,Rx,0,4,02,06,C3,16,00,00,00,00,
1000,00000097,false,Rx,0,8,81,60,50,01,FD,00,00,25,
1000,0000018E,false,Rx,0,3,00,00,01,00,00,00,00,00,
1000,0000015A,false,Rx,0,8,00,00,FF,79,00,00,00,0A,
2000,000001A4,false,Rx,0,8,00,69,00,00,00,00,00,28,
2000,000001AA,false,Rx,0,8,7F,FF,00,00,00,00,69,2E,
0,000001B0,false,Rx,0,7,81,10,7F,FF,00,00,2C,00,
0,000001D0,false,Rx,0,8,41,E2,83,DD,07,9A,0E,26,
2000,00000039,false,Rx,0,2,00,0C,00,00,00,00,00,00,
3000,000001E7,false,Rx,0,4,1A,40,68,23,00,00,00,00,
8000,00000158,false,Rx,0,8,20,5A,06,C0,20,5A,DF,19,
8000,00000188,false,Rx,0,6,05,05,80,08,00,49,00,00,
9000,000001C0,false,Rx,0,7,00,00,00,00,00,00,0B,00,
9000,00000136,false,Rx,0,8,02,00,00,0C,00,00,00,3D,
10000,0000013A,false,Rx,0,8,00,00,00,00,00,00,00,37,
0,0000013F,false,Rx,0,8,FF,83,00,7A,FF,EC,00,30,
0,00000156,false,Rx,0,6,00,22,00,00,07,3E,00,00,
10000,0000017C,false,Rx,0,8,00,00,06,C1,02,00,00,3C,
11000,00000097,false,Rx,0,8,81,60,50,01,FC,00,00,35,
0,0000018E,false,Rx,0,3,00,08,18,00,00,00,00,00,
0,0000015A,false,Rx,0,8,00,00,FF,79,00,00,00,19,
13000,00000039,false,Rx,0,2,00,1B,00,00,00,00,00,00,
16000,000001A6,false,Rx,0,8,02,00,00,68,18,00,00,1D,
16000,00000294,false,Rx,0,8,00,15,00,03,EE,80,20,37,
18000,00000158,false,Rx,0,8,20,60,06,BE,20,60,DF,2D,
18000,00000188,false,Rx,0,6,05,05,80,08,00,58,00,00,
20000,00000136,false,Rx,0,8,02,00,00,0C,00,00,00,00,
20000,0000013A,false,Rx,0,8,00,00,00,00,00,00,00,0A,
0,0000013F,false,Rx,0,8,FF,83,00,7A,FF,F6,00,08,
0,00000156,false,Rx,0,6,00,22,00,00,07,01,00,00,
0,0000017C,false,Rx,0,8,00,00,06,C0,02,00,00,00,
0,00000097,false,Rx,0,8,81,60,50,01,FD,00,00,07,
0,000001DC,false,Rx,0,4,02,06,C0,28,00,00,00,00,
0,0000030C,false,Rx,0,8,22,1B,C6,FF,00,80,80,18,
0,00000320,false,Rx,0,3,00,00,21,00,00,00,00,00,
0,00000324,false,Rx,0,8,79,2A,32,66,00,0A,00,26,
22000,0000015A,false,Rx,0,8,00,00,FF,36,00,00,00,2F,
22000,0000018E,false,Rx,0,3,00,07,28,00,00,00,00,00,
0,000001A4,false,Rx,0,8,00,69,00,00,00,00,00,37,
0,000001AA,false,Rx,0,8,7F,FF,00,00,00,00,69,3D,
23000,000001B0,false,Rx,0,7,81,10,7F,FF,00,00,3B,00,
23000,000001D0,false,Rx,0,8,41,FA,83,F5,07,9A,0E,23,
0,000001E7,false,Rx,0,4,1A,00,68,36,00,00,00,00,
0,0000037C,false,Rx,0,8,DC,00,DD,31,00,00,00,29,
0,000003D7,false,Rx,0,8,B0,00,00,00,00,00,00,51,
0,00000400,false,Rx,0,5,00,00,00,00,22,00,00,00,
25000,0000040C,false,Rx,0,8,15,00,00,00,00,00,00,20,
25000,00000454,false,Rx,0,6,4D,F3,02,3A,50,22,00,00,
0,00000465,false,Rx,0,7,FF,FF,FF,FF,FF,FF,23,00,
0,000006C1,false,Rx,0,1,14,00,00,00,00,00,00,00,
0,00000039,false,Rx,0,2,00,2A,00,00,00,00,00,00,
27000,00000158,false,Rx,0,8,20,61,06,C1,20,61,DF,36,
27000,00000188,false,Rx,0,6,05,05,80,08,00,67,00,00,
29000,000001C0,false,Rx,0,7,00,00,00,00,00,00,1A,00,
29000,00000136,false,Rx,0,8,02,00,00,0C,00,00,00,1F,
29000,0000013A,false,Rx,0,8,00,00,00,00,00,00,00,19,
31000,0000013F,false,Rx,0,8,FF,83,00,7A,00,00,00,1A,
0,00000156,false,Rx,0,6,00,22,00,00,07,10,00,00,
0,0000017C,false,Rx,0,8,00,00,06,C0,02,00,00,1F,
31000,00000097,false,Rx,0,8,81,60,50,01,FD,00,00,16,
32000,0000015A,false,Rx,0,8,00,00,FF,36,00,00,00,3E,
32000,0000018E,false,Rx,0,3,00,06,38,00,00,00,00,00,
36000,00000039,false,Rx,0,2,00,39,00,00,00,00,00,00,
37000,000001A6,false,Rx,0,8,02,00,00,68,17,00,00,2D,
37000,00000309,false,Rx,0,8,21,F8,00,00,00,56,00,61,
37000,00000374,false,Rx,0,7,00,00,00,00,00,00,28,00,
37000,00000377,false,Rx,0,8,04,10,58,FA,2A,00,82,24,
38000,00000378,false,Rx,0,8,07,90,F2,23,50,20,00,27,
38000,00000158,false,Rx,0,8,20,63,06,C3,20,63,DF,03,
39000,00000188,false,Rx,0,6,05,05,80,08,00,76,00,00,
40000,00000136,false,Rx,0,8,02,00,00,0C,00,00,00,2E,
40000,0000013A,false,Rx,0,8,00,00,00,00,00,00,00,28,
41000,0000013F,false,Rx,0,8,FF,83,00,7A,00,1E,00,2A,
41000,00000156,false,Rx,0,6,00,22,00,00,07,2F,00,00,
41000,0000017C,false,Rx,0,8,00,00,06,C3,02,00,00,2B,
41000,000001DC,false,Rx,0,4,02,06,C3,34,00,00,00,00,
42000,00000097,false,Rx,0,8,81,60,50,01,FB,00,00,27,
42000,0000015A,false,Rx,0,8,00,00,FF,36,00,00,00,01,
42000,000001A4,false,Rx,0,8,00,69,00,00,00,00,00,0A,
43000,0000018E,false,Rx,0,3,00,00,01,00,00,00,00,00,
43000,000001AA,false,Rx,0,8,7F,FF,00,00,00,00,69,00,
43000,000001B0,false,Rx,0,7,81,10,7F,FF,00,00,0E,00,
43000,000001D0,false,Rx,0,8,42,06,83,B5,07,EA,0F,9C,
44000,000001E7,false,Rx,0,4,1A,40,68,05,00,00,00,00,
47000,00000039,false,Rx,0,2,00,0C,00,00,00,00,00,00,
48000,00000158,false,Rx,0,8,20,63,06,C3,20,63,DF,12,
49000,00000188,false,Rx,0,6,05,05,80,08,00,49,00,00,
50000,000001C0,false,Rx,0,7,00,00,00,00,00,00,29,00,
50000,00000136,false,Rx,0,8,02,00,00,0C,00,00,00,3D,
50000,0000013A,false,Rx,0,8,00,00,00,00,00,00,00,37,
0,0000013F,false,Rx,0,8,FF,83,00,7A,00,00,00,38,
0,00000156,false,Rx,0,6,00,22,00,00,07,3E,00,00,
51000,0000017C,false,Rx,0,8,00,00,06,C3,02,00,00,3A,
51000,00000097,false,Rx,0,8,81,60,50,01,FC,00,00,35,
52000,0000015A,false,Rx,0,8,00,00,FF,79,00,00,00,19,
52000,0000018E,false,Rx,0,3,00,01,1F,00,00,00,00,00,
57000,000001A6,false,Rx,0,8,02,00,00,68,18,00,00,3B,
57000,00000294,false,Rx,0,8,00,15,00,03,EE,80,20,0A,
0,00000158,false,Rx,0,8,20,66,06,BF,20,66,DF,20,
0,00000039,false,Rx,0,2,00,1B,00,00,00,00,00,00,
58000,00000188,false,Rx,0,6,05,05,80,08,00,58,00,00,
0,00000136,false,Rx,0,8,02,00,00,0C,00,00,00,00,
0,0000013A,false,Rx,0,8,00,00,00,00,00,00,00,0A,
0,0000013F,false,Rx,0,8,FF,83,00,79,00,0A,00,02,
0,00000156,false,Rx,0,6,00,22,00,00,07,01,00,00,
0,0000017C,false,Rx,0,8,00,00,06,C4,02,00,00,0C,
60000,000001DC,false,Rx,0,4,02,06,C4,06,00,00,00,00,
61000,00000097,false,Rx,0,8,81,60,50,01,FA,00,00,0A,
61000,0000015A,false,Rx,0,8,00,00,FF,79,00,00,00,28,
62000,000001A4,false,Rx,0,8,00,69,00,00,00,00,00,19,
62000,0000018E,false,Rx,0,3,00,00,2F,00,00,00,00,00,
0,000001AA,false,Rx,0,8,7F,FF,00,00,00,00,69,1F,
0,000001B0,false,Rx,0,7,81,10,7F,FF,00,00,1D,00,
62000,000001D0,false,Rx,0,8,41,F4,83,91,07,B2,0E,FC,
63000,000001E7,false,Rx,0,4,1A,40,68,14,00,00,00,00,
68000,00000158,false,Rx,0,8,20,6A,06,C2,20,6A,DF,33,
68000,00000188,false,Rx,0,6,05,05,80,08,00,67,00,00,
68000,00000039,false,Rx,0,2,00,2A,00,00,00,00,00,00,
69000,000001C0,false,Rx,0,7,00,00,00,00,00,00,38,00,
69000,00000136,false,Rx,0,8,02,00,00,0C,00,00,00,1F,
70000,0000013A,false,Rx,0,8,00,00,00,00,00,00,00,19,
70000,0000013F,false,Rx,0,8,FF,83,00,79,00,00,00,1B,
70000,00000156,false,Rx,0,6,00,22,00,00,07,10,00,00,
70000,0000017C,false,Rx,0,8,00,00,06,C4,02,00,00,1B,
71000,00000097,false,Rx,0,8,81,20,50,01,FA,00,00,1D,
71000,0000015A,false,Rx,0,8,00,00,FF,79,00,00,00,37,
72000,0000018E,false,Rx,0,3,00,00,3E,00,00,00,00,00,
76000,000001A6,false,Rx,0,8,02,00,00,68,18,00,00,0E,
78000,00000158,false,Rx,0,8,20,5D,06,C2,20,5D,DF,02,
78000,00000188,false,Rx,0,6,05,05,80,08,00,76,00,00,
0,00000136,false,Rx,0,8,02,00,00,0C,00,00,00,2E,
0,00000039,false,Rx,0,2,00,39,00,00,00,00,00,00,
80000,0000013A,false,Rx,0,8,00,00,00,00,00,00,00,28,
80000,0000013F,false,Rx,0,8,FF,83,00,79,00,14,00,25,
80000,00000156,false,Rx,0,6,00,22,00,00,07,2F,00,00,
81000,0000017C,false,Rx,0,8,00,00,06,C6,02,00,00,28,
81000,00000097,false,Rx,0,8,81,20,50,01,FC,00,00,2A,
81000,000001DC,false,Rx,0,4,02,06,C6,13,00,00,00,00,
81000,0000015A,false,Rx,0,8,00,00,FF,79,00,00,00,0A,
82000,000001A4,false,Rx,0,8,00,6A,00,00,00,00,00,27,
82000,0000018E,false,Rx,0,3,00,05,0C,00,00,00,00,00,
82000,000001AA,false,Rx,0,8,7F,FF,00,00,00,00,6A,2D,
82000,000001B0,false,Rx,0,7,80,D0,7F,FF,00,00,21,00,
82000,000001D0,false,Rx,0,8,41,D4,83,85,07,7A,0D,F8,
83000,000001E7,false,Rx,0,4,1A,40,68,23,00,00,00,00,
88000,00000158,false,Rx,0,8,20,5F,06,C1,20,5F,DF,1E,
88000,00000188,false,Rx,0,6,05,05,80,08,00,49,00,00,
90000,000001C0,false,Rx,0,7,00,00,00,00,00,00,0B,00,
90000,00000136,false,Rx,0,8,02,00,00,0C,00,00,00,3D,
90000,0000013A,false,Rx,0,8,00,00,00,00,00,00,00,37,
90000,0000013F,false,Rx,0,8,FF,83,00,7A,FF,C4,00,3A,
90000,00000156,false,Rx,0,6,00,22,00,00,07,3E,00,00,
0,0000017C,false,Rx,0,8,00,00,06,C0,02,00,00,3D,
0,00000039,false,Rx,0,2,00,0C,00,00,00,00,00,00,
91000,00000097,false,Rx,0,8,81,60,50,01,FE,00,00,33,
0,0000015A,false,Rx,0,8,00,00,FF,79,00,00,00,19,
0,0000018E,false,Rx,0,3,00,03,1D,00,00,00,00,00,
95000,0000033D,false,Rx,0,4,00,00,00,05,00,00,00,00,
97000,000001A6,false,Rx,0,8,02,00,00,68,18,00,00,1D,
0,00000294,false,Rx,0,8,00,15,00,03,EE,80,20,19,
0,00000305,false,Rx,0,2,0E,02,00,00,00,00,00,00,
98000,00000158,false,Rx,0,8,20,58,06,BF,20,58,DF,2E,
98000,00000188,false,Rx,0,6,05,05,80,08,00,58,00,00,
100000,00000136,false,Rx,0,8,02,00,00,0C,00,00,00,00,
100000,0000013A,false,Rx,0,8,00,00,00,00,00,00,00,0A,
101000,0000013F,false,Rx,0,8,FF,83,00,7A,00,00,00,0B,
101000,00000156,false,Rx,0,6,00,22,00,00,07,01,00,00,
101000,0000017C,false,Rx,0,8,00,00,06,C0,02,00,00,00,
101000,000001DC,false,Rx,0,4,02,06,C0,28,00,00,00,00,
102000,00000097,false,Rx,0,8,81,60,50,01,FA,00,00,0A,
102000,0000015A,false,Rx,0,8,00,00,FF,36,00,00,00,2F,
102000,00000039,false,Rx,0,2,00,1B,00,00,00,00,00,00,
102000,0000018E,false,Rx,0,3,00,06,29,00,00,00,00,00,
103000,000001A4,false,Rx,0,8,00,69,00,00,00,00,00,37,
103000,000001AA,false,Rx,0,8,7F,FF,00,00,00,00,69,3D,
103000,000001B0,false,Rx,0,7,81,10,7F,FF,00,00,3B,00,
104000,000001D0,false,Rx,0,8,41,E8,83,85,07,12,0D,1F,
104000,000001E7,false,Rx,0,4,1A,40,68,32,00,00,00,00,
108000,00000158,false,Rx,0,8,20,51,06,BE,20,51,DF,3C,
108000,00000188,false,Rx,0,6,05,05,80,08,00,67,00,00,
110000,000001C0,false,Rx,0,7,00,00,00,00,00,00,1A,00,
110000,00000136,false,Rx,0,8,02,00,00,0C,00,00,00,1F,
110000,0000013A,false,Rx,0,8,00,00,00,00,00,00,00,19,
111000,0000013F,false,Rx,0,8,FF,83,00,7A,00,00,00,1A,
111000,00000156,false,Rx,0,6,00,22,00,00,07,10,00,00,
0,0000017C,false,Rx,0,8,00,00,06,C0,02,00,00,1F,
0,00000097,false,Rx,0,8,81,60,50,01,FB,00,00,18,
112000,0000015A,false,Rx,0,8,00,00,FF,36,00,00,00,3E,
112000,0000018E,false,Rx,0,3,00,02,3C,00,00,00,00,00,
113000,00000039,false,Rx,0,2,00,2A,00,00,00,00,00,00,
117000,000001A6,false,Rx,0,8,02,00,00,68,18,00,00,2C,
118000,00000158,false,Rx,0,8,20,4A,06,C0,20,4A,DF,0C,
118000,00000188,false,Rx,0,6,05,05,80,08,00,76,00,00,
120000,00000136,false,Rx,0,8,02,00,00,0C,00,00,00,2E,
120000,0000013A,false,Rx,0,8,00,00,00,00,00,00,00,28,
0,0000013F,false,Rx,0,8,FF,83,00,7A,00,00,00,29,
0,00000156,false,Rx,0,6,00,23,00,01,07,2D,00,00,
0,0000017C,false,Rx,0,8,00,00,06,C0,02,00,00,2E,
0,000001DC,false,Rx,0,4,02,06,C0,37,00,00,00,00,
121000,00000097,false,Rx,0,8,81,60,50,01,FC,00,00,26,
0,0000030C,false,Rx,0,8,22,0B,C6,FF,00,80,80,28,
0,00000320,false,Rx,0,3,00,00,30,00,00,00,00,00,
0,00000324,false,Rx,0,8,79,2A,32,66,00,08,00,37,
0,0000015A,false,Rx,0,8,00,00,FF,36,00,00,00,01,
0,0000018E,false,Rx,0,3,00,02,0F,00,00,00,00,00,
123000,000001A4,false,Rx,0,8,00,6A,00,00,00,00,00,09,
123000,000001AA,false,Rx,0,8,7F,FF,00,00,00,00,6A,0F,
123000,000001B0,false,Rx,0,7,81,10,7F,FF,00,00,0E,00,
0,000001D0,false,Rx,0,8,41,E2,83,79,07,4A,0F,33,
0,000001E7,false,Rx,0,4,1A,40,68,05,00,00,00,00,
0,0000037C,false,Rx,0,8,DE,00,DE,31,00,00,00,35,
124000,00000406,false,Rx,0,5,00,00,00,03,0B,00,00,00,
124000,00000039,false,Rx,0,2,00,39,00,00,00,00,00,00,
128000,00000158,false,Rx,0,8,20,58,06,BD,20,58,DF,11,
128000,00000188,false,Rx,0,6,05,05,80,08,00,49,00,00,
130000,000001C0,false,Rx,0,7,00,00,00,00,00,00,29,00,
0,00000136,false,Rx,0,8,02,00,00,0C,00,00,00,3D,
0,0000013A,false,Rx,0,8,00,00,00,00,00,00,00,37,
0,0000013F,false,Rx,0,8,FF,83,00,7B,FF,EC,00,3F,
131000,00000156,false,Rx,0,6,00,22,00,01,07,3D,00,00,
131000,0000017C,false,Rx,0,8,00,00,06,BE,02,00,00,30,
131000,00000097,false,Rx,0,8,81,60,50,01,FB,00,00,36,
132000,0000015A,false,Rx,0,8,00,00,FF,36,00,00,00,10,
132000,0000018E,false,Rx,0,3,00,01,1F,00,00,00,00,00,
135000,00000039,false,Rx,0,2,00,0C,00,00,00,00,00,00,
137000,000001A6,false,Rx,0,8,02,00,00,68,1A,00,00,39,
137000,00000294,false,Rx,0,8,00,15,00,03,EE,80,20,28,
0,00000309,false,Rx,0,8,21,EE,00,00,00,56,00,7B,
0,00000374,false,Rx,0,7,00,00,00,00,00,00,37,00,
0,00000377,false,Rx,0,8,04,10,58,FA,2A,00,82,33,
138000,00000378,false,Rx,0,8,07,90,F2,23,50,20,00,36,
138000,00000405,false,Rx,0,8,00,02,00,00,00,00,00,3A,
138000,00000158,false,Rx,0,8,20,5C,06,BE,20,5C,DF,27,
138000,00000188,false,Rx,0,6,05,05,80,08,00,58,00,00,
139000,00000428,false,Rx,0,7,00,00,00,00,00,00,37,00,
140000,00000136,false,Rx,0,8,02,00,00,0C,00,00,00,00,
140000,0000013A,false,Rx,0,8,00,00,00,00,00,00,00,0A,
141000,0000013F,false,Rx,0,8,FF,83,00,7B,00,00,00,0A,
141000,00000156,false,Rx,0,6,00,22,00,00,07,01,00,00,
141000,0000017C,false,Rx,0,8,00,00,06,BE,02,00,00,03,
141000,000001DC,false,Rx,0,4,02,06,BE,0D,00,00,00,00,
141000,00000097,false,Rx,0,8,81,20,50,01,FA,00,00,0E,
142000,0000015A,false,Rx,0,8,00,00,FF,36,00,00,00,2F,
142000,000001A4,false,Rx,0,8,00,69,00,00,00,00,00,19,
143000,0000018E,false,Rx,0,3,00,01,2E,00,00,00,00,00,
143000,000001AA,false,Rx,0,8,7F,FF,00,00,00,00,69,1F,
0,000001B0,false,Rx,0,7,81,10,7F,FF,00,00,1D,00,
0,000001D0,false,Rx,0,8,41,C2,83,6D,07,12,0D,F3,
0,000001E7,false,Rx,0,4,1A,00,68,18,00,00,00,00,
146000,00000039,false,Rx,0,2,00,1B,00,00,00,00,00,00,
148000,00000158,false,Rx,0,8,20,4E,06,C0,20,4E,DF,31,
148000,00000188,false,Rx,0,6,05,05,80,08,00,67,00,00,
150000,000001C0,false,Rx,0,7,00,00,00,00,00,00,38,00,
150000,00000136,false,Rx,0,8,02,00,00,0C,00,00,00,1F,
150000,0000013A,false,Rx,0,8,00,00,00,00,00,00,00,19,
150000,0000013F,false,Rx,0,8,FF,83,00,7A,00,28,00,10,
151000,00000156,false,Rx,0,6,00,22,00,01,07,1F,00,00,
151000,0000017C,false,Rx,0,8,00,00,06,C2,02,00,00,1D,
0,00000097,false,Rx,0,8,81,20,40,01,F9,00,00,1F,
0,0000015A,false,Rx,0,8,00,00,FF,36,00,00,00,3E,
152000,0000018E,false,Rx,0,3,00,07,37,00,00,00,00,00,
157000,000001A6,false,Rx,0,8,02,00,00,68,18,00,00,0E,
157000,00000039,false,Rx,0,2,00,2A,00,00,00,00,00,00,
0,00000158,false,Rx,0,8,20,4F,06,BD,20,4F,DF,06,
0,00000188,false,Rx,0,6,05,05,80,08,00,76,00,00,
0,00000136,false,Rx,0,8,02,00,00,0C,00,00,00,2E,
0,0000013A,false,Rx,0,8,00,00,00,00,00,00,00,28,
0,0000013F,false,Rx,0,8,FF,83,00,7A,FF,E2,00,2B,
0,00000156,false,Rx,0,6,00,22,00,01,07,2E,00,00,
161000,0000017C,false,Rx,0,8,00,00,06,BF,02,00,00,20,
161000,000001DC,false,Rx,0,4,02,06,BF,1B,00,00,00,00,
161000,00000097,false,Rx,0,8,81,20,40,01,FB,00,00,2C,
162000,00000421,false,Rx,0,5,00,00,00,01,00,00,00,00,
0,0000015A,false,Rx,0,8,00,00,FF,36,00,00,00,01,
0,000001A4,false,Rx,0,8,00,69,00,00,00,00,00,28,
0,0000018E,false,Rx,0,3,00,06,0B,00,00,00,00,00,
162000,000001AA,false,Rx,0,8,7F,FF,00,00,00,00,69,2E,
0,000001B0,false,Rx,0,7,80,D0,7F,FF,00,00,21,00,
0,000001D0,false,Rx,0,8,41,C8,83,21,07,9A,0D,B1,
0,000001E7,false,Rx,0,4,1A,40,68,23,00,00,00,00,
0,00000158,false,Rx,0,8,20,51,06,BE,20,51,DF,1E,
0,00000039,false,Rx,0,2,00,39,00,00,00,00,00,00,
169000,00000188,false,Rx,0,6,05,05,80,08,00,49,00,00,
169000,000001C0,false,Rx,0,7,00,00,00,00,00,00,0B,00,
170000,00000136,false,Rx,0,8,02,00,00,0C,00,00,00,3D,
0,0000013A,false,Rx,0,8,00,00,00,00,00,00,00,37,
0,0000013F,false,Rx,0,8,FF,83,00,7A,00,00,00,38,
0,00000156,false,Rx,0,6,00,22,00,00,07,3E,00,00,
171000,0000017C,false,Rx,0,8,00,00,06,BF,02,00,00,3F,
171000,00000097,false,Rx,0,8,81,20,50,01,FF,00,00,36,
0,0000015A,false,Rx,0,8,00,00,FF,36,00,00,00,10,
0,0000018E,false,Rx,0,3,00,05,1B,00,00,00,00,00,
176000,000001A6,false,Rx,0,8,02,00,00,68,17,00,00,1E,
176000,00000294,false,Rx,0,8,00,15,00,03,EE,80,20,37,
0,00000158,false,Rx,0,8,20,47,06,BB,20,47,DF,26,
0,00000188,false,Rx,0,6,05,05,80,08,00,58,00,00,
179000,00000039,false,Rx,0,2,00,0C,00,00,00,00,00,00,
180000,00000136,false,Rx,0,8,02,00,00,0C,00,00,00,00,
180000,0000013A,false,Rx,0,8,00,00,00,00,00,00,00,0A,
180000,0000013F,false,Rx,0,8,FF,83,00,7B,FF,F6,00,07,
180000,00000156,false,Rx,0,6,00,22,00,01,07,00,00,00,
0,0000017C,false,Rx,0,8,00,00,06,BE,02,00,00,03,
0,000001DC,false,Rx,0,4,02,06,BE,2B,00,00,00,00,
181000,00000097,false,Rx,0,8,81,20,50,01,FE,00,00,0A,
182000,0000015A,false,Rx,0,8,00,00,FF,36,00,00,00,2F,
182000,000001A4,false,Rx,0,8,00,69,00,00,00,00,00,37,
182000,0000018E,false,Rx,0,3,00,01,2E,00,00,00,00,00,
182000,000001AA,false,Rx,0,8,7F,FF,00,00,00,00,69,3D,
183000,000001B0,false,Rx,0,7,80,D0,7F,FF,00,00,30,00,
0,000001D0,false,Rx,0,8,41,B6,83,3D,06,8A,0C,7E,
0,000001E7,false,Rx,0,4,1A,40,68,32,00,00,00,00,
188000,00000158,false,Rx,0,8,20,46,06,BA,20,46,DF,38,
188000,00000188,false,Rx,0,6,05,05,80,08,00,67,00,00,
190000,000001C0,false,Rx,0,7,00,00,00,00,00,00,1A,00,
0,00000136,false,Rx,0,8,02,00,00,0C,00,00,00,1F,
0,00000039,false,Rx,0,2,00,1B,00,00,00,00,00,00,
190000,0000013A,false,Rx,0,8,00,00,00,00,00,00,00,19,
0,0000013F,false,Rx,0,8,FF,83,00,7B,00,00,00,19,
0,00000156,false,Rx,0,6,00,22,00,01,07,1F,00,00,
191000,0000017C,false,Rx,0,8,00,00,06,BE,02,00,00,12,
191000,00000097,false,Rx,0,8,81,60,50,01,FD,00,00,16,
0,0000015A,false,Rx,0,8,00,00,FF,36,00,00,00,3E,
0,0000018E,false,Rx,0,3,00,02,3C,00,00,00,00,00,
195000,0000033D,false,Rx,0,4,00,00,00,14,00,00,00,00,
196000,000001A6,false,Rx,0,8,02,00,00,68,18,00,00,2C,
198000,00000158,false,Rx,0,8,20,46,06,BA,20,46,E0,09,
198000,00000188,false,Rx,0,6,05,05,80,08,00,76,00,00,
200000,00000136,false,Rx,0,8,02,00,00,0C,00,00,00,2E,
200000,0000013A,false,Rx,0,8,00,00,00,00,00,00,00,28,
200000,0000013F,false,Rx,0,8,FF,83,00,7B,FF,D8,00,25,
201000,00000156,false,Rx,0,6,00,22,00,00,07,2F,00,00,
0,0000017C,false,Rx,0,8,00,00,06,BA,02,00,00,25,
0,000001DC,false,Rx,0,4,02,06,BA,3E,00,00,00,00,
0,00000039,false,Rx,0,2,00,2A,00,00,00,00,00,00,
0,00000097,false,Rx,0,8,81,20,50,01,FB,00,00,2B,
0,00000305,false,Rx,0,2,0E,11,00,00,00,00,00,00,
202000,0000015A,false,Rx,0,8,00,00,FF,36,00,00,00,01,
202000,000001A4,false,Rx,0,8,00,69,00,00,00,00,00,0A,
202000,0000018E,false,Rx,0,3,00,05,0C,00,00,00,00,00,
203000,000001AA,false,Rx,0,8,7F,FF,00,00,00,00,69,00,
203000,000001B0,false,Rx,0,7,81,10,7F,FF,00,00,0E,00,
0,000001D0,false,Rx,0,8,41,AA,83,55,06,DA,0D,B7,
0,000001E7,false,Rx,0,4,1A,40,69,04,00,00,00,00,
208000,00000158,false,Rx,0,8,20,43,06,BD,20,43,E0,1B,
208000,00000188,false,Rx,0,6,05,05,80,08,00,49,00,00,
210000,000001C0,false,Rx,0,7,00,00,00,00,00,00,29,00,
210000,00000136,false,Rx,0,8,02,00,00,0C,00,00,00,3D,
210000,0000013A,false,Rx,0,8,00,00,00,00,00,00,00,37,
0,0000013F,false,Rx,0,8,FF,83,00,7B,00,00,00,37,
0,00000156,false,Rx,0,6,00,22,00,00,07,3E,00,00,
211000,0000017C,false,Rx,0,8,00,00,06,BA,02,00,00,34,
211000,00000097,false,Rx,0,8,81,20,50,01,FA,00,00,3B,
212000,0000015A,false,Rx,0,8,00,00,FF,36,00,00,00,10,
212000,00000039,false,Rx,0,2,00,39,00,00,00,00,00,00,
212000,0000018E,false,Rx,0,3,00,05,1B,00,00,00,00,00,
216000,000001A6,false,Rx,0,8,02,00,00,68,18,00,00,3B,
217000,00000294,false,Rx,0,8,00,15,00,03,EE,80,20,0A,
218000,00000158,false,Rx,0,8,20,3F,06,B9,20,3F,E0,28,
218000,00000188,false,Rx,0,6,05,05,80,08,00,58,00,00,
220000,00000136,false,Rx,0,8,02,00,00,0C,00,00,00,00,
220000,0000013A,false,Rx,0,8,00,00,00,00,00,00,00,0A,
0,0000013F,false,Rx,0,8,FF,83,00,7B,00,14,00,05,
0,00000156,false,Rx,0,6,00,23,00,01,07,0F,00,00,
221000,0000017C,false,Rx,0,8,00,00,06,BC,02,00,00,05,
221000,000001DC,false,Rx,0,4,02,06,BC,0F,00,00,00,00,
0,00000097,false,Rx,0,8,81,60,50,01,FA,00,00,0A,
0,0000030C,false,Rx,0,8,21,FF,C6,FF,00,80,80,35,
222000,00000320,false,Rx,0,3,00,00,03,00,00,00,00,00,
222000,00000324,false,Rx,0,8,79,2A,32,66,00,02,00,00,
222000,0000015A,false,Rx,0,8,00,00,FF,36,00,00,00,2F,
222000,0000018E,false,Rx,0,3,00,00,2F,00,00,00,00,00,
222000,000001A4,false,Rx,0,8,00,69,00,00,00,00,00,19,
223000,000001AA,false,Rx,0,8,7F,FF,00,00,00,00,69,1F,
223000,000001B0,false,Rx,0,7,80,D0,7F,FF,00,00,12,00,
223000,00000039,false,Rx,0,2,00,0C,00,00,00,00,00,00,
223000,000001D0,false,Rx,0,8,41,AA,83,31,06,DA,0D,17,
223000,000001E7,false,Rx,0,4,1A,40,68,14,00,00,00,00,
224000,0000037C,false,Rx,0,8,E2,00,E2,31,00,00,00,0E,
224000,000003D7,false,Rx,0,8,B0,00,00,00,00,00,00,24,
228000,00000158,false,Rx,0,8,20,3C,06,B8,20,3C,E0,3E,
228000,00000188,false,Rx,0,6,05,05,80,08,00,67,00,00,
230000,000001C0,false,Rx,0,7,00,00,00,00,00,00,38,00,
230000,00000136,false,Rx,0,8,02,00,00,0C,00,00,00,1F,
230000,0000013A,false,Rx,0,8,00,00,00,00,00,00,00,19,
230000,0000013F,false,Rx,0,8,FF,83,00,7B,FF,EC,00,11,
231000,00000156,false,Rx,0,6,00,22,00,00,07,10,00,00,
231000,0000017C,false,Rx,0,8,00,00,06,BA,02,00,00,16,
231000,00000097,false,Rx,0,8,81,20,50,01,F9,00,00,1E,
232000,0000015A,false,Rx,0,8,00,00,FF,36,00,00,00,3E,
232000,0000018E,false,Rx,0,3,00,04,3A,00,00,00,00,00,
234000,00000039,false,Rx,0,2,00,1B,00,00,00,00,00,00,
237000,000001A6,false,Rx,0,8,02,00,00,68,18,00,00,0E,
237000,00000309,false,Rx,0,8,21,DF,00,00,00,56,00,4E,
237000,00000374,false,Rx,0,7,00,00,00,00,00,00,0A,00,
237000,00000377,false,Rx,0,8,04,10,58,FA,2A,00,82,06,
237000,00000378,false,Rx,0,8,07,90,F2,23,50,20,00,09,
238000,00000158,false,Rx,0,8,20,3D,06,BC,20,3D,E0,0B,
238000,00000188,false,Rx,0,6,05,05,80,08,00,76,00,00,
240000,00000136,false,Rx,0,8,02,00,00,0C,00,00,00,2E,
240000,0000013A,false,Rx,0,8,00,00,00,00,00,00,00,28,
240000,0000013F,false,Rx,0,8,FF,83,00,7B,00,00,00,28,
240000,00000156,false,Rx,0,6,00,22,00,01,07,2E,00,00,
241000,0000017C,false,Rx,0,8,00,00,06,BA,02,00,00,25,
241000,000001DC,false,Rx,0,4,02,06,BA,10,00,00,00,00,
241000,00000097,false,Rx,0,8,81,20,50,01,F8,00,00,2E,
242000,0000015A,false,Rx,0,8,00,00,FF,36,00,00,00,01,
242000,000001A4,false,Rx,0,8,00,69,00,00,00,00,00,28,
242000,0000018E,false,Rx,0,3,00,0B,06,00,00,00,00,00,
243000,000001AA,false,Rx,0,8,7F,FF,00,00,00,00,69,2E,
243000,000001B0,false,Rx,0,7,80,D0,7F,FF,00,00,21,00,
0,000001D0,false,Rx,0,8,41,B0,82,F5,07,2A,0D,57,
0,000001E7,false,Rx,0,4,1A,40,68,23,00,00,00,00,
245000,00000039,false,Rx,0,2,00,2A,00,00,00,00,00,00,
248000,00000158,false,Rx,0,8,20,3C,06,B8,20,3C,E0,10,
248000,00000188,false,Rx,0,6,05,05,80,08,00,49,00,00,
250000,000001C0,false,Rx,0,7,00,00,00,00,00,00,0B,00,
250000,00000136,false,Rx,0,8,02,00,00,0C,00,00,00,3D,
250000,0000013A,false,Rx,0,8,00,00,00,00,00,00,00,37,
250000,0000013F,false,Rx,0,8,FF,83,00,7B,00,0A,00,3D,
250000,00000156,false,Rx,0,6,00,22,00,00,07,3E,00,00,
251000,0000017C,false,Rx,0,8,00,00,06,BB,02,00,00,33,
251000,00000097,false,Rx,0,8,81,20,50,01,FD,00,00,38,
252000,0000015A,false,Rx,0,8,00,00,FF,36,00,00,00,10,
252000,0000018E,false,Rx,0,3,00,04,1C,00,00,00,00,00,
256000,00000039,false,Rx,0,2,00,39,00,00,00,00,00,00,
256000,000001A6,false,Rx,0,8,02,00,00,68,17,00,00,1E,
256000,00000294,false,Rx,0,8,00,15,00,03,EE,80,20,19,
0,00000158,false,Rx,0,8,20,3A,06,B7,20,3A,E0,24,
0,00000188,false,Rx,0,6,05,05,80,08,00,58,00,00,
260000,00000136,false,Rx,0,8,02,00,00,0C,00,00,00,00,
260000,0000013A,false,Rx,0,8,00,00,00,00,00,00,00,0A,
260000,0000013F,false,Rx,0,8,FF,83,00,7B,00,00,00,0A,
260000,00000156,false,Rx,0,6,00,22,00,00,07,01,00,00,
0,0000017C,false,Rx,0,8,00,00,06,BB,02,00,00,06,
0,000001DC,false,Rx,0,4,02,06,BB,2E,00,00,00,00,
261000,00000097,false,Rx,0,8,81,20,50,01,FF,00,00,09,
262000,0000015A,false,Rx,0,8,00,00,FF,36,00,00,00,2F,
0,000001A4,false,Rx,0,8,00,69,00,00,00,00,00,37,
0,0000018E,false,Rx,0,3,00,03,2C,00,00,00,00,00,
263000,000001AA,false,Rx,0,8,7F,FF,00,00,00,00,69,3D,
263000,000001B0,false,Rx,0,7,80,D0,7F,FF,00,00,30,00,
0,000001D0,false,Rx,0,8,41,98,83,3D,06,72,0B,E1,
0,000001E7,false,Rx,0,4,1A,00,68,36,00,00,00,00,
266000,00000039,false,Rx,0,2,00,0C,00,00,00,00,00,00,
268000,00000158,false,Rx,0,8,20,36,06,BA,20,36,E0,38,
268000,00000188,false,Rx,0,6,05,05,80,08,00,67,00,00,
269000,000001C0,false,Rx,0,7,00,00,00,00,00,00,1A,00,
269000,00000136,false,Rx,0,8,02,00,00,0C,00,00,00,1F,
270000,0000013A,false,Rx,0,8,00,00,00,00,00,00,00,19,
0,0000013F,false,Rx,0,8,FF,83,00,7C,FF,EC,00,10,
0,00000156,false,Rx,0,6,00,22,00,00,07,10,00,00,
0,0000017C,false,Rx,0,8,00,00,06,B9,02,00,00,17,
0,00000097,false,Rx,0,8,81,20,50,01,FD,00,00,1A,
272000,0000015A,false,Rx,0,8,00,00,FF,36,00,00,00,3E,
272000,0000018E,false,Rx,0,3,00,01,3D,00,00,00,00,00,
277000,000001A6,false,Rx,0,8,02,00,00,68,17,00,00,2D,
0,00000158,false,Rx,0,8,20,3F,06,BA,20,3F,E0,09,
0,00000039,false,Rx,0,2,00,1B,00,00,00,00,00,00,
279000,00000188,false,Rx,0,6,05,05,80,08,00,76,00,00,
280000,00000136,false,Rx,0,8,02,00,00,0C,00,00,00,2E,
280000,0000013A,false,Rx,0,8,00,00,00,00,00,00,00,28,
281000,0000013F,false,Rx,0,8,FF,83,00,7C,00,00,00,27,
281000,00000156,false,Rx,0,6,00,22,00,00,07,2F,00,00,
0,0000017C,false,Rx,0,8,00,00,06,B9,02,00,00,26,
0,000001DC,false,Rx,0,4,02,06,B9,3F,00,00,00,00,
281000,00000097,false,Rx,0,8,81,60,50,01,FE,00,00,24,
282000,0000015A,false,Rx,0,8,00,00,FF,36,00,00,00,01,
282000,000001A4,false,Rx,0,8,00,69,00,00,00,00,00,0A,
282000,0000018E,false,Rx,0,3,00,01,00,00,00,00,00,00,
283000,000001AA,false,Rx,0,8,7F,FF,00,00,00,00,69,00,
283000,000001B0,false,Rx,0,7,80,D0,7F,FF,00,00,03,00,
0,000001D0,false,Rx,0,8,41,9E,83,3D,06,3A,0B,AB,
0,000001E7,false,Rx,0,4,1A,40,68,05,00,00,00,00,
288000,00000158,false,Rx,0,8,20,39,06,B9,20,39,E0,15,
288000,00000188,false,Rx,0,6,05,05,80,08,00,49,00,00,
289000,00000039,false,Rx,0,2,00,2A,00,00,00,00,00,00,
289000,000001C0,false,Rx,0,7,00,00,00,00,00,00,29,00,
289000,00000136,false,Rx,0,8,02,00,00,0C,00,00,00,3D,
289000,0000013A,false,Rx,0,8,00,00,00,00,00,00,00,37,
290000,0000013F,false,Rx,0,8,FF,83,00,7B,00,14,00,32,
290000,00000156,false,Rx,0,6,00,22,00,00,07,3E,00,00,
290000,0000017C,false,Rx,0,8,00,00,06,BB,02,00,00,33,
290000,00000097,false,Rx,0,8,81,60,50,01,FB,00,00,36,
292000,0000015A,false,Rx,0,8,00,00,FF,36,00,00,00,10,
292000,0000018E,false,Rx,0,3,00,02,1E,00,00,00,00,00,
295000,0000033D,false,Rx,0,4,00,00,00,23,00,00,00,00,
296000,000001A6,false,Rx,0,8,02,00,00,68,18,00,00,3B,
296000,00000294,false,Rx,0,8,00,15,00,03,EE,80,20,28,
298000,00000158,false,Rx,0,8,20,40,06,B8,20,40,E0,25,
298000,00000188,false,Rx,0,6,05,05,80,08,00,58,00,00,
0,00000136,false,Rx,0,8,02,00,00,0C,00,00,00,00,
0,00000039,false,Rx,0,2,00,39,00,00,00,00,00,00,
301000,0000013A,false,Rx,0,8,00,00,00,00,00,00,00,0A,
301000,0000013F,false,Rx,0,8,FF,83,00,7B,FF,F6,00,07,
301000,00000156,false,Rx,0,6,00,22,00,00,07,01,00,00,
301000,0000017C,false,Rx,0,8,00,00,06,BA,02,00,00,07,
301000,00000097,false,Rx,0,8,81,60,50,01,FA,00,00,0A,
301000,000001DC,false,Rx,0,4,02,06,BA,01,00,00,00,00,
302000,0000015A,false,Rx,0,8,00,00,FF,36,00,00,00,2F,
302000,000001A4,false,Rx,0,8,00,69,00,00,00,00,00,19,
302000,0000018E,false,Rx,0,3,00,01,2E,00,00,00,00,00,
302000,000001AA,false,Rx,0,8,7F,FF,00,00,00,00,69,1F,
302000,000001B0,false,Rx,0,7,81,10,7F,FF,00,00,1D,00,
302000,000001D0,false,Rx,0,8,41,B0,83,09,06,C2,0D,14,
303000,000001E7,false,Rx,0,4,1A,00,68,18,00,00,00,00,
305000,00000305,false,Rx,0,2,0E,20,00,00,00,00,00,00,
308000,00000158,false,Rx,0,8,20,3D,06,BA,20,3D,E0,3A,
308000,00000188,false,Rx,0,6,05,05,80,08,00,67,00,00,
310000,000001C0,false,Rx,0,7,00,00,00,00,00,00,38,00,
310000,00000136,false,Rx,0,8,02,00,00,0C,00,00,00,1F,
310000,0000013A,false,Rx,0,8,00,00,00,00,00,00,00,19,
310000,0000013F,false,Rx,0,8,FF,83,00,7B,00,00,00,19,
310000,00000156,false,Rx,0,6,00,22,00,00,07,10,00,00,
311000,0000017C,false,Rx,0,8,00,00,06,BA,02,00,00,16,
311000,00000039,false,Rx,0,2,00,0C,00,00,00,00,00,00,
311000,00000097,false,Rx,0,8,81,60,50,01,FB,00,00,18,
312000,0000015A,false,Rx,0,8,00,00,FF,36,00,00,00,3E,
312000,0000018E,false,Rx,0,3,00,04,3A,00,00,00,00,00,
316000,000001A6,false,Rx,0,8,02,00,00,68,18,00,00,0E,
318000,00000158,false,Rx,0,8,20,36,06,BA,20,36,E0,0B,
318000,00000188,false,Rx,0,6,05,05,80,08,00,76,00,00,
320000,00000136,false,Rx,0,8,02,00,00,0C,00,00,00,2E,
320000,0000013A,false,Rx,0,8,00,00,00,00,00,00,00,28,
0,0000013F,false,Rx,0,8,FF,83,00,7B,00,14,00,23,
0,00000156,false,Rx,0,6,00,22,00,00,07,2F,00,00,
321000,0000017C,false,Rx,0,8,00,00,06,BC,02,00,00,23,
321000,000001DC,false,Rx,0,4,02,06,BC,1E,00,00,00,00,
321000,00000097,false,Rx,0,8,81,60,50,01,F9,00,00,29,
321000,0000030C,false,Rx,0,8,21,EF,C6,FF,00,80,80,09,
321000,00000320,false,Rx,0,3,00,00,12,00,00,00,00,00,
321000,00000324,false,Rx,0,8,79,2A,32,66,00,0E,00,13,
321000,00000039,false,Rx,0,2,00,1B,00,00,00,00,00,00,
322000,0000015A,false,Rx,0,8,00,00,FF,36,00,00,00,01,
322000,0000018E,false,Rx,0,3,00,02,0F,00,00,00,00,00,
323000,000001A4,false,Rx,0,8,00,69,00,00,00,00,00,28,
323000,000001AA,false,Rx,0,8,7F,FF,00,00,00,00,69,2E,
323000,000001B0,false,Rx,0,7,81,10,7F,FF,00,00,2C,00,
323000,000001D0,false,Rx,0,8,41,9E,83,09,06,8A,0C,42,
323000,000001E7,false,Rx,0,4,1A,00,68,27,00,00,00,00,
323000,0000037C,false,Rx,0,8,DA,00,DA,31,00,00,00,1F,
324000,00000400,false,Rx,0,5,00,00,00,00,31,00,00,00,
324000,0000040C,false,Rx,0,8,16,00,00,00,00,00,00,3E,
0,00000454,false,Rx,0,6,4D,F3,02,3A,50,31,00,00,
0,00000465,false,Rx,0,7,FF,FF,FF,FF,FF,FF,32,00,
324000,000006C1,false,Rx,0,1,23,00,00,00,00,00,00,00,
328000,00000158,false,Rx,0,8,20,39,06,B9,20,39,E0,15,
328000,00000188,false,Rx,0,6,05,05,80,08,00,49,00,00,
329000,000001C0,false,Rx,0,7,00,00,00,00,00,00,0B,00,
329000,00000136,false,Rx,0,8,02,00,00,0C,00,00,00,3D,
330000,0000013A,false,Rx,0,8,00,00,00,00,00,00,00,37,
330000,0000013F,false,Rx,0,8,FF,83,00,7B,00,00,00,37,
330000,00000156,false,Rx,0,6,00,22,00,01,07,3D,00,00,
330000,0000017C,false,Rx,0,8,00,00,06,BC,02,00,00,32,
330000,00000097,false,Rx,0,8,81,60,50,01,FB,00,00,36,
332000,0000015A,false,Rx,0,8,00,00,FF,36,00,00,00,10,
332000,0000018E,false,Rx,0,3,00,08,18,00,00,00,00,00,
333000,00000039,false,Rx,0,2,00,2A,00,00,00,00,00,00,
337000,000001A6,false,Rx,0,8,02,00,00,68,18,00,00,1D,
337000,00000294,false,Rx,0,8,00,15,00,03,EE,80,20,37,
337000,00000309,false,Rx,0,8,21,D9,00,00,00,56,00,53,
337000,00000374,false,Rx,0,7,00,00,00,00,00,00,19,00,
337000,00000377,false,Rx,0,8,04,10,58,FA,2A,00,82,15,
338000,00000378,false,Rx,0,8,07,90,F2,23,50,20,00,18,
338000,00000158,false,Rx,0,8,20,38,06,B5,20,38,E0,2A,
338000,00000188,false,Rx,0,6,05,05,80,08,00,58,00,00,
0,00000136,false,Rx,0,8,02,00,00,0C,00,00,00,00,
0,0000013A,false,Rx,0,8,00,00,00,00,00,00,00,0A,
341000,0000013F,false,Rx,0,8,FF,83,00,7C,FF,E2,00,0B,
0,00000156,false,Rx,0,6,00,22,00,00,07,01,00,00,
0,0000017C,false,Rx,0,8,00,00,06,B9,02,00,00,08,
0,000001DC,false,Rx,0,4,02,06,B9,20,00,00,00,00,
341000,00000097,false,Rx,0,8,81,60,50,01,FC,00,00,08,
0,0000015A,false,Rx,0,8,00,00,FF,36,00,00,00,2F,
0,000001A4,false,Rx,0,8,00,69,00,00,00,00,00,37,
0,0000018E,false,Rx,0,3,00,08,27,00,00,00,00,00,
343000,000001AA,false,Rx,0,8,7F,FF,00,00,00,00,69,3D,
0,000001B0,false,Rx,0,7,81,10,7F,FF,00,00,3B,00,
0,000001D0,false,Rx,0,8,41,84,82,E5,06,8A,0B,EB,
343000,000001E7,false,Rx,0,4,1A,40,68,32,00,00,00,00,
344000,00000039,false,Rx,0,2,00,39,00,00,00,00,00,00,
348000,00000158,false,Rx,0,8,20,39,06,B9,20,39,E0,33,
348000,00000188,false,Rx,0,6,05,05,80,08,00,67,00,00,
349000,000001C0,false,Rx,0,7,00,00,00,00,00,00,1A,00,
0,00000136,false,Rx,0,8,02,00,00,0C,00,00,00,1F,
0,0000013A,false,Rx,0,8,00,00,00,00,00,00,00,19,
350000,0000013F,false,Rx,0,8,FF,83,00,7C,00,00,00,18,
350000,00000156,false,Rx,0,6,00,22,00,00,07,10,00,00,
350000,0000017C,false,Rx,0,8,00,00,06,B9,02,00,00,17,
350000,00000097,false,Rx,0,8,81,60,50,01,FE,00,00,15,
352000,0000015A,false,Rx,0,8,00,00,FF,36,00,00,00,3E,
352000,0000018E,false,Rx,0,3,00,04,3A,00,00,00,00,00,
355000,00000039,false,Rx,0,2,00,0C,00,00,00,00,00,00,
356000,000001A6,false,Rx,0,8,02,00,00,68,18,00,00,2C,
357000,00000158,false,Rx,0,8,20,28,06,B9,20,28,E0,0A,
358000,00000188,false,Rx,0,6,05,05,80,08,00,76,00,00,
360000,00000136,false,Rx,0,8,02,00,00,0C,00,00,00,2E,
360000,0000013A,false,Rx,0,8,00,00,00,00,00,00,00,28,
361000,0000013F,false,Rx,0,8,FF,83,00,7C,00,00,00,27,
361000,00000156,false,Rx,0,6,00,22,00,01,07,2E,00,00,
0,0000017C,false,Rx,0,8,00,00,06,B9,02,00,00,26,
0,000001DC,false,Rx,0,4,02,06,B9,3F,00,00,00,00,
362000,00000097,false,Rx,0,8,81,60,50,01,FE,00,00,24,
0,0000015A,false,Rx,0,8,00,00,FF,36,00,00,00,01,
0,000001A4,false,Rx,0,8,00,69,00,00,00,00,00,0A,
362000,0000018E,false,Rx,0,3,00,03,0E,00,00,00,00,00,
0,000001AA,false,Rx,0,8,7F,FF,00,00,00,00,69,00,
0,000001B0,false,Rx,0,7,81,10,7F,FF,00,00,0E,00,
0,000001D0,false,Rx,0,8,41,90,82,D9,05,D2,0A,77,
0,000001E7,false,Rx,0,4,1A,40,68,05,00,00,00,00,
366000,00000039,false,Rx,0,2,00,1B,00,00,00,00,00,00,
368000,00000158,false,Rx,0,8,20,2A,06,B3,20,2A,E0,1B,
368000,00000188,false,Rx,0,6,05,05,80,08,00,49,00,00,
370000,000001C0,false,Rx,0,7,00,00,00,00,00,00,29,00,
370000,00000136,false,Rx,0,8,02,00,00,0C,00,00,00,3D,
370000,0000013A,false,Rx,0,8,00,00,00,00,00,00,00,37,
370000,0000013F,false,Rx,0,8,FF,83,00,7C,FF,E2,00,38,
370000,00000156,false,Rx,0,6,00,22,00,00,07,3E,00,00,
371000,0000017C,false,Rx,0,8,00,00,06,B6,02,00,00,38,
371000,00000097,false,Rx,0,8,81,20,50,01,FD,00,00,38,
0,0000015A,false,Rx,0,8,00,00,FF,36,00,00,00,10,
0,0000018E,false,Rx,0,3,00,02,1E,00,00,00,00,00,
376000,000001A6,false,Rx,0,8,02,00,00,68,17,00,00,3C,
376000,00000294,false,Rx,0,8,00,15,00,03,EE,80,20,0A,
377000,00000039,false,Rx,0,2,00,2A,00,00,00,00,00,00,
377000,00000158,false,Rx,0,8,20,36,06,B5,20,36,E0,2E,
377000,00000188,false,Rx,0,6,05,05,80,08,00,58,00,00,
380000,00000136,false,Rx,0,8,02,00,00,0C,00,00,00,00,
380000,0000013A,false,Rx,0,8,00,00,00,00,00,00,00,0A,
0,0000013F,false,Rx,0,8,FF,83,00,7C,00,00,00,09,
0,00000156,false,Rx,0,6,00,22,00,00,07,01,00,00,
0,0000017C,false,Rx,0,8,00,00,06,B6,02,00,00,0B,
0,000001DC,false,Rx,0,4,02,06,B6,05,00,00,00,00,
381000,00000097,false,Rx,0,8,81,60,50,01,FA,00,00,0A,
0,0000015A,false,Rx,0,8,00,00,FF,36,00,00,00,2F,
0,000001A4,false,Rx,0,8,00,69,00,00,00,00,00,19,
0,0000018E,false,Rx,0,3,00,03,2C,00,00,00,00,00,
382000,000001AA,false,Rx,0,8,7F,FF,00,00,00,00,69,1F,
382000,000001B0,false,Rx,0,7,80,D0,7F,FF,00,00,12,00,
383000,000001D0,false,Rx,0,8,41,8A,83,09,06,22,0D,17,
383000,000001E7,false,Rx,0,4,1A,40,68,14,00,00,00,00,
0,00000158,false,Rx,0,8,20,32,06,B8,20,32,E0,32,
0,00000039,false,Rx,0,2,00,39,00,00,00,00,00,00,
388000,00000188,false,Rx,0,6,05,05,80,08,00,67,00,00,
0,000001C0,false,Rx,0,7,00,00,00,00,00,00,38,00,
0,00000136,false,Rx,0,8,02,00,00,0C,00,00,00,1F,
0,0000013A,false,Rx,0,8,00,00,00,00,00,00,00,19,
0,0000013F,false,Rx,0,8,FF,83,00,7B,00,28,00,1F,
391000,00000156,false,Rx,0,6,00,22,00,00,07,10,00,00,
391000,0000017C,false,Rx,0,8,00,00,06,BA,02,00,00,16,
391000,00000097,false,Rx,0,8,81,60,50,01,F9,00,00,1A,
392000,0000015A,false,Rx,0,8,00,00,FF,36,00,00,00,3E,
392000,0000018E,false,Rx,0,3,00,04,3A,00,00,00,00,00,
395000,0000033D,false,Rx,0,4,00,00,00,32,00,00,00,00,
396000,000001A6,false,Rx,0,8,02,00,00,68,18,00,00,0E,
398000,00000158,false,Rx,0,8,20,2D,06,B9,20,2D,E0,00,
398000,00000188,false,Rx,0,6,05,05,80,08,00,76,00,00,
399000,00000039,false,Rx,0,2,00,0C,00,00,00,00,00,00,
400000,00000136,false,Rx,0,8,02,00,00,0C,00,00,00,2E,
400000,0000013A,false,Rx,0,8,00,00,00,00,00,00,00,28,
0,0000013F,false,Rx,0,8,FF,83,00,7B,00,00,00,28,
0,00000156,false,Rx,0,6,00,22,00,00,07,2F,00,00,
0,0000017C,false,Rx,0,8,00,00,06,BA,02,00,00,25,
0,000001DC,false,Rx,0,4,02,06,BA,10,00,00,00,00,
0,00000097,false,Rx,0,8,81,60,50,01,FC,00,00,26,
0,0000015A,false,Rx,0,8,00,00,FF,36,00,00,00,01,
0,000001A4,false,Rx,0,8,00,69,00,00,00,00,00,28,
403000,0000018E,false,Rx,0,3,00,05,0C,00,00,00,00,00,
403000,000001AA,false,Rx,0,8,7F,FF,00,00,00,00,69,2E,
403000,000001B0,false,Rx,0,7,81,10,7F,FF,00,00,2C,00,
403000,000001D0,false,Rx,0,8,41,8A,83,15,05,F2,0C,1F,
403000,000001E7,false,Rx,0,4,1A,80,68,2F,00,00,00,00,
0,00000158,false,Rx,0,8,20,32,06,B6,20,32,E0,16,
0,00000188,false,Rx,0,6,05,05,80,08,00,49,00,00,
409000,000001C0,false,Rx,0,7,00,00,00,00,00,00,0B,00,
409000,00000136,false,Rx,0,8,02,00,00,0C,00,00,00,3D,
0,0000013A,false,Rx,0,8,00,00,00,00,00,00,00,37,
0,00000039,false,Rx,0,2,00,1B,00,00,00,00,00,00,
0,0000013F,false,Rx,0,8,FF,83,00,7C,FF,F6,00,33,
0,00000156,false,Rx,0,6,00,22,00,00,07,3E,00,00,
0,0000017C,false,Rx,0,8,00,00,06,B9,02,00,00,35,
411000,00000097,false,Rx,0,8,81,20,40,01,FB,00,00,3B,
412000,00000305,false,Rx,0,2,0E,3F,00,00,00,00,00,00,
0,0000015A,false,Rx,0,8,00,00,FF,36,00,00,00,10,
0,0000018E,false,Rx,0,3,00,02,1E,00,00,00,00,00,
416000,000001A6,false,Rx,0,8,02,00,00,68,17,00,00,1E,
417000,00000294,false,Rx,0,8,00,15,00,03,EE,80,20,19,
418000,00000158,false,Rx,0,8,20,38,06,B6,20,38,E0,29,
418000,00000188,false,Rx,0,6,05,05,80,08,00,58,00,00,
420000,00000136,false,Rx,0,8,02,00,00,0C,00,00,00,00,
420000,0000013A,false,Rx,0,8,00,00,00,00,00,00,00,0A,
0,0000013F,false,Rx,0,8,FF,83,00,7B,00,14,00,05,
0,00000156,false,Rx,0,6,00,22,00,01,07,00,00,00,
420000,0000017C,false,Rx,0,8,00,00,06,BB,02,00,00,06,
420000,000001DC,false,Rx,0,4,02,06,BB,2E,00,00,00,00,
421000,00000039,false,Rx,0,2,00,2A,00,00,00,00,00,00,
0,00000097,false,Rx,0,8,81,20,40,01,FC,00,00,0D,
0,0000030C,false,Rx,0,8,21,E0,C6,FF,00,80,80,17,
0,00000320,false,Rx,0,3,00,00,21,00,00,00,00,00,
0,0000015A,false,Rx,0,8,00,00,FF,36,00,00,00,2F,
421000,000001A4,false,Rx,0,8,00,69,00,00,00,00,00,37,
423000,0000018E,false,Rx,0,3,00,01,2E,00,00,00,00,00,
0,000001AA,false,Rx,0,8,7F,FF,00,00,00,00,69,3D,
0,000001B0,false,Rx,0,7,80,D0,7F,FF,00,00,30,00,
423000,000001D0,false,Rx,0,8,41,84,82,CD,06,8A,0B,E5,
423000,000001E7,false,Rx,0,4,1A,40,68,32,00,00,00,00,
423000,00000324,false,Rx,0,8,79,2A,32,66,00,0B,00,25,
424000,0000037C,false,Rx,0,8,DC,00,DC,31,00,00,00,2A,
0,000003D7,false,Rx,0,8,B0,00,00,00,00,00,00,7F,
0,00000406,false,Rx,0,5,00,00,00,03,1A,00,00,00,
0,00000158,false,Rx,0,8,20,32,06,B9,20,32,E0,31,
0,00000188,false,Rx,0,6,05,05,80,08,00,67,00,00,
429000,000001C0,false,Rx,0,7,00,00,00,00,00,00,1A,00,
429000,00000136,false,Rx,0,8,02,00,00,0C,00,00,00,1F,
430000,0000013A,false,Rx,0,8,00,00,00,00,00,00,00,19,
430000,0000013F,false,Rx,0,8,FF,83,00,7B,00,00,00,19,
430000,00000156,false,Rx,0,6,00,22,00,01,07,1F,00,00,
430000,0000017C,false,Rx,0,8,00,00,06,BB,02,00,00,15,
431000,00000097,false,Rx,0,8,81,20,50,01,FE,00,00,19,
0,0000015A,false,Rx,0,8,00,00,FF,79,00,00,00,37,
0,00000039,false,Rx,0,2,00,39,00,00,00,00,00,00,
432000,0000018E,false,Rx,0,3,00,02,3C,00,00,00,00,00,
436000,000001A6,false,Rx,0,8,02,00,00,68,17,00,00,2D,
436000,00000309,false,Rx,0,8,21,CE,00,00,00,56,00,6E,
437000,00000374,false,Rx,0,7,00,00,00,00,00,00,28,00,
437000,00000377,false,Rx,0,8,04,10,58,FA,2A,00,82,24,
437000,00000378,false,Rx,0,8,07,90,F2,23,50,20,00,27,
437000,00000405,false,Rx,0,8,00,02,00,00,00,00,00,0D,
437000,00000428,false,Rx,0,7,00,00,00,00,00,00,0A,00,
438000,00000158,false,Rx,0,8,20,2F,06,B7,20,2F,E0,0E,
438000,00000188,false,Rx,0,6,05,05,80,08,00,76,00,00,
439000,00000136,false,Rx,0,8,02,00,00,0C,00,00,00,2E,
439000,0000013A,false,Rx,0,8,00,00,00,00,00,00,00,28,
441000,0000013F,false,Rx,0,8,FF,83,00,7C,FF,D8,00,24,
441000,00000156,false,Rx,0,6,00,22,00,00,07,2F,00,00,
441000,0000017C,false,Rx,0,8,00,00,06,B7,02,00,00,28,
441000,000001DC,false,Rx,0,4,02,06,B7,31,00,00,00,00,
441000,00000097,false,Rx,0,8,81,60,50,01,FE,00,00,24,
442000,0000015A,false,Rx,0,8,00,00,FF,79,00,00,00,0A,
0,000001A4,false,Rx,0,8,00,69,00,00,00,00,00,0A,
0,0000018E,false,Rx,0,3,00,05,0C,00,00,00,00,00,
442000,000001AA,false,Rx,0,8,7F,FF,00,00,00,00,69,00,
442000,000001B0,false,Rx,0,7,80,D0,7F,FF,00,00,03,00,
0,000001D0,false,Rx,0,8,41,84,82,F1,05,A2,0A,7D,
0,00000039,false,Rx,0,2,00,0C,00,00,00,00,00,00,
443000,000001E7,false,Rx,0,4,1A,80,68,01,00,00,00,00,
448000,00000158,false,Rx,0,8,20,34,06,B8,20,34,E0,10,
448000,00000188,false,Rx,0,6,05,05,80,08,00,49,00,00,
450000,000001C0,false,Rx,0,7,00,00,00,00,00,00,29,00,
450000,00000136,false,Rx,0,8,02,00,00,0C,00,00,00,3D,
450000,0000013A,false,Rx,0,8,00,00,00,00,00,00,00,37,
450000,0000013F,false,Rx,0,8,FF,83,00,7C,00,00,00,36,
450000,00000156,false,Rx,0,6,00,22,00,00,07,3E,00,00,
451000,0000017C,false,Rx,0,8,00,00,06,B7,02,00,00,37,
451000,00000097,false,Rx,0,8,81,60,50,01,FE,00,00,33,
0,0000018E,false,Rx,0,3,00,04,1C,00,00,00,00,00,
0,0000015A,false,Rx,0,8,00,00,FF,36,00,00,00,10,
453000,00000039,false,Rx,0,2,00,1B,00,00,00,00,00,00,
0,000001A6,false,Rx,0,8,02,00,00,68,17,00,00,3C,
0,00000294,false,Rx,0,8,00,15,00,03,EE,80,20,28,
458000,00000158,false,Rx,0,8,20,2A,06,B5,20,2A,E0,28,
458000,00000188,false,Rx,0,6,05,05,80,08,00,58,00,00,
459000,00000136,false,Rx,0,8,02,00,00,0C,00,00,00,00,
459000,0000013A,false,Rx,0,8,00,00,00,00,00,00,00,0A,
461000,0000013F,false,Rx,0,8,FF,83,00,7C,00,0A,00,0F,
0,00000156,false,Rx,0,6,00,22,00,01,07,00,00,00,
0,0000017C,false,Rx,0,8,00,00,06,B8,02,00,00,09,
461000,000001DC,false,Rx,0,4,02,06,B8,03,00,00,00,00,
461000,00000097,false,Rx,0,8,81,20,50,01,FC,00,00,0C,
461000,00000421,false,Rx,0,5,00,00,00,01,1F,00,00,00,
462000,0000018E,false,Rx,0,3,00,03,2C,00,00,00,00,00,
0,0000015A,false,Rx,0,8,00,00,FF,36,00,00,00,2F,
0,000001A4,false,Rx,0,8,00,69,00,00,00,00,00,19,
462000,000001AA,false,Rx,0,8,7F,FF,00,00,00,00,69,1F,
462000,000001B0,false,Rx,0,7,81,10,7F,FF,00,00,1D,00,
462000,000001D0,false,Rx,0,8,41,7A,83,15,05,A2,0B,43,
462000,000001E7,false,Rx,0,4,1A,40,68,14,00,00,00,00,
465000,00000039,false,Rx,0,2,00,2A,00,00,00,00,00,00,
468000,00000158,false,Rx,0,8,20,2A,06,B4,20,2A,E0,38,
468000,00000188,false,Rx,0,6,05,05,80,08,00,67,00,00,
0,000001C0,false,Rx,0,7,00,00,00,00,00,00,38,00,
0,00000136,false,Rx,0,8,02,00,00,0C,00,00,00,1F,
0,0000013A,false,Rx,0,8,00,00,00,00,00,00,00,19,
0,0000013F,false,Rx,0,8,FF,83,00,7C,00,00,00,18,
0,00000156,false,Rx,0,6,00,22,00,01,07,1F,00,00,
0,0000017C,false,Rx,0,8,00,00,06,B8,02,00,00,18,
471000,00000097,false,Rx,0,8,81,20,50,01,FB,00,00,1C,
472000,0000018E,false,Rx,0,3,00,03,3B,00,00,00,00,00,
472000,0000015A,false,Rx,0,8,00,00,FF,36,00,00,00,3E,
476000,00000039,false,Rx,0,2,00,39,00,00,00,00,00,00,
477000,000001A6,false,Rx,0,8,02,00,00,68,18,00,00,0E,
478000,00000158,false,Rx,0,8,20,2B,06,B6,20,2B,E0,07,
478000,00000188,false,Rx,0,6,05,05,80,08,00,76,00,00,
480000,00000136,false,Rx,0,8,02,00,00,0C,00,00,00,2E,
480000,0000013A,false,Rx,0,8,00,00,00,00,00,00,00,28,
481000,0000013F,false,Rx,0,8,FF,83,00,7C,FF,E2,00,29,
481000,00000156,false,Rx,0,6,00,22,00,00,07,2F,00,00,
481000,0000017C,false,Rx,0,8,00,00,06,B5,02,00,00,2A,
481000,000001DC,false,Rx,0,4,02,06,B5,15,00,00,00,00,
481000,00000097,false,Rx,0,8,81,60,50,01,FC,00,00,26,
482000,0000015A,false,Rx,0,8,00,00,FF,36,00,00,00,01,
482000,000001A4,false,Rx,0,8,00,69,00,00,00,00,00,28,
482000,0000018E,false,Rx,0,3,00,06,0B,00,00,00,00,00,
483000,000001AA,false,Rx,0,8,7F,FF,00,00,00,00,69,2E,
483000,000001B0,false,Rx,0,7,80,D0,7F,FF,00,00,21,00,
483000,000001D0,false,Rx,0,8,41,98,82,D9,05,D2,0B,AB,
483000,000001E7,false,Rx,0,4,1A,40,68,23,00,00,00,00,
487000,00000039,false,Rx,0,2,00,0C,00,00,00,00,00,00,
488000,00000158,false,Rx,0,8,20,2B,06,B6,20,2B,E0,16,
488000,00000188,false,Rx,0,6,05,05,80,08,00,49,00,00,
0,000001C0,false,Rx,0,7,00,00,00,00,00,00,0B,00,
0,00000136,false,Rx,0,8,02,00,00,0C,00,00,00,3D,
490000,0000013A,false,Rx,0,8,00,00,00,00,00,00,00,37,
0,0000013F,false,Rx,0,8,FF,83,00,7C,00,1E,00,37,
0,00000156,false,Rx,0,6,00,22,00,00,07,3E,00,00,
491000,0000017C,false,Rx,0,8,00,00,06,B8,02,00,00,36,
491000,00000097,false,Rx,0,8,81,20,40,01,FB,00,00,3B,
492000,0000015A,false,Rx,0,8,00,00,FF,79,00,00,00,19,
492000,0000018E,false,Rx,0,3,00,00,10,00,00,00,00,00,
495000,0000033D,false,Rx,0,4,00,00,00,05,00,00,00,00,
497000,000001A6,false,Rx,0,8,02,00,00,68,18,00,00,1D,
497000,00000294,false,Rx,0,8,00,15,00,03,EE,80,20,37,
0,00000158,false,Rx,0,8,20,27,06,B5,20,27,E0,2E,
0,00000039,false,Rx,0,2,00,1B,00,00,00,00,00,00,
498000,00000188,false,Rx,0,6,05,05,80,08,00,58,00,00,
500000,00000136,false,Rx,0,8,02,00,00,0C,00,00,00,00,
500000,0000013A,false,Rx,0,8,00,00,00,00,00,00,00,0A,
500000,0000013F,false,Rx,0,8,FF,83,00,7C,00,00,00,09,
500000,00000156,false,Rx,0,6,00,22,00,01,07,00,00,00,
0,0000017C,false,Rx,0,8,00,00,06,B8,02,00,00,09,
0,000001DC,false,Rx,0,4,02,06,B8,21,00,00,00,00,
501000,00000097,false,Rx,0,8,81,20,40,01,F9,00,00,00,
502000,0000015A,false,Rx,0,8,00,00,FF,79,00,00,00,28,
502000,000001A4,false,Rx,0,8,00,6A,00,00,00,00,00,36,
502000,0000018E,false,Rx,0,3,00,03,2C,00,00,00,00,00,
503000,000001AA,false,Rx,0,8,7F,FF,00,00,00,00,6A,3C,
503000,000001B0,false,Rx,0,7,80,D0,7F,FF,00,00,30,00,
503000,000001D0,false,Rx,0,8,41,84,82,B5,06,22,0A,A1,
503000,000001E7,false,Rx,0,4,1A,40,68,32,00,00,00,00,
508000,00000158,false,Rx,0,8,20,2B,06,B4,20,2B,E0,36,
508000,00000188,false,Rx,0,6,05,05,80,08,00,67,00,00,
509000,00000039,false,Rx,0,2,00,2A,00,00,00,00,00,00,
510000,000001C0,false,Rx,0,7,00,00,00,00,00,00,1A,00,
510000,00000136,false,Rx,0,8,02,00,00,0C,00,00,00,1F,
510000,0000013A,false,Rx,0,8,00,00,00,00,00,00,00,19,
0,0000013F,false,Rx,0,8,FF,83,00,7C,FF,F6,00,15,
0,00000156,false,Rx,0,6,00,22,00,00,07,10,00,00,
511000,0000017C,false,Rx,0,8,00,00,06,B7,02,00,00,19,
511000,00000097,false,Rx,0,8,81,20,40,01,FB,00,00,1D,
512000,0000015A,false,Rx,0,8,00,00,FF,79,00,00,00,37,
512000,0000018E,false,Rx,0,3,00,04,3A,00,00,00,00,00,
515000,00000305,false,Rx,0,2,0E,02,00,00,00,00,00,00,
516000,000001A6,false,Rx,0,8,02,00,00,68,18,00,00,2C,
518000,00000158,false,Rx,0,8,20,2E,06,B8,20,2E,E0,0F,
518000,00000188,false,Rx,0,6,05,05,80,08,00,76,00,00,
520000,00000136,false,Rx,0,8,02,00,00,0C,00,00,00,2E,
0,0000013A,false,Rx,0,8,00,00,00,00,00,00,00,28,
0,00000039,false,Rx,0,2,00,39,00,00,00,00,00,00,
520000,0000013F,false,Rx,0,8,FF,83,00,7C,00,00,00,27,
521000,00000156,false,Rx,0,6,00,22,00,01,07,2E,00,00,
521000,0000017C,false,Rx,0,8,00,00,06,B7,02,00,00,28,
521000,00000097,false,Rx,0,8,81,60,40,01,FF,00,00,24,
521000,000001DC,false,Rx,0,4,02,06,B7,31,00,00,00,00,
0,0000030C,false,Rx,0,8,21,D3,C6,FF,00,80,80,24,
0,00000320,false,Rx,0,3,00,00,30,00,00,00,00,00,
522000,0000015A,false,Rx,0,8,00,00,FF,79,00,00,00,0A,
522000,000001A4,false,Rx,0,8,00,69,00,00,00,00,00,0A,
522000,0000018E,false,Rx,0,3,00,05,0C,00,00,00,00,00,
523000,000001AA,false,Rx,0,8,7F,FF,00,00,00,00,69,00,
523000,000001B0,false,Rx,0,7,80,D0,7F,FF,00,00,03,00,
0,000001D0,false,Rx,0,8,41,60,82,CD,05,82,0A,03,
0,000001E7,false,Rx,0,4,1A,40,68,05,00,00,00,00,
524000,00000324,false,Rx,0,8,79,2A,32,66,00,00,00,3F,
524000,0000037C,false,Rx,0,8,E5,00,E5,31,00,00,00,35,
528000,00000158,false,Rx,0,8,20,28,06,B5,20,28,E0,1D,
528000,00000188,false,Rx,0,6,05,05,80,08,00,49,00,00,
530000,000001C0,false,Rx,0,7,00,00,00,00,00,00,29,00,
530000,00000136,false,Rx,0,8,02,00,00,0C,00,00,00,3D,
530000,0000013A,false,Rx,0,8,00,00,00,00,00,00,00,37,
530000,0000013F,false,Rx,0,8,FF,83,00,7C,00,0A,00,3C,
531000,00000156,false,Rx,0,6,00,22,00,00,07,3E,00,00,
531000,0000017C,false,Rx,0,8,00,00,06,B8,02,00,00,36,
531000,00000039,false,Rx,0,2,00,0C,00,00,00,00,00,00,
531000,00000097,false,Rx,0,8,81,60,40,01,FE,00,00,34,
532000,0000015A,false,Rx,0,8,00,00,FF,79,00,00,00,19,
532000,0000018E,false,Rx,0,3,00,03,1D,00,00,00,00,00,
537000,000001A6,false,Rx,0,8,02,00,00,68,18,00,00,3B,
537000,00000294,false,Rx,0,8,00,15,00,03,EE,80,20,0A,
537000,00000309,false,Rx,0,8,21,C6,00,00,00,56,00,75,
537000,00000374,false,Rx,0,7,00,00,00,00,00,00,37,00,
537000,00000377,false,Rx,0,8,04,10,58,FA,2A,00,82,33,
538000,00000378,false,Rx,0,8,07,90,F2,23,50,20,00,36,
0,00000158,false,Rx,0,8,20,28,06,B5,20,28,E0,2C,
0,00000188,false,Rx,0,6,05,05,80,08,00,58,00,00,
540000,00000136,false,Rx,0,8,02,00,00,0C,00,00,00,00,
540000,0000013A,false,Rx,0,8,00,01,00,00,00,00,00,09,
540000,0000013F,false,Rx,0,8,FF,83,00,73,00,00,00,02,
541000,00000156,false,Rx,0,6,00,22,00,00,07,01,00,00,
541000,0000017C,false,Rx,0,8,00,00,06,B8,82,00,00,01,
541000,000001DC,false,Rx,0,4,02,06,B8,03,00,00,00,00,
541000,00000097,false,Rx,0,8,81,20,40,01,FD,00,00,0C,
542000,0000015A,false,Rx,0,8,00,00,FF,79,00,00,00,28,
542000,00000039,false,Rx,0,2,00,1B,00,00,00,00,00,00,
542000,0000018E,false,Rx,0,3,00,03,2C,00,00,00,00,00,
543000,000001A4,false,Rx,0,8,00,69,00,00,00,00,00,19,
543000,000001AA,false,Rx,0,8,7F,FF,00,00,00,00,69,1F,
543000,000001B0,false,Rx,0,7,81,10,7F,FF,00,00,1D,00,
0,000001D0,false,Rx,0,8,41,7E,82,CD,05,52,0A,34,
0,000001E7,false,Rx,0,4,1A,40,68,14,00,00,00,00,
548000,00000158,false,Rx,0,8,20,26,06,B4,20,26,E0,30,
548000,00000188,false,Rx,0,6,05,05,80,08,00,67,00,00,
550000,000001C0,false,Rx,0,7,00,00,00,00,00,00,38,00,
550000,00000136,false,Rx,0,8,00,00,00,0C,00,00,00,11,
550000,0000013A,false,Rx,0,8,00,03,00,00,00,00,00,16,
550000,0000013F,false,Rx,0,8,00,7D,00,7A,FF,EC,00,17,
551000,00000156,false,Rx,0,6,00,22,00,00,07,10,00,00,
551000,0000017C,false,Rx,0,8,00,00,06,B6,82,00,00,12,
551000,00000097,false,Rx,0,8,81,20,40,01,FC,00,00,1C,
552000,0000015A,false,Rx,0,8,00,00,FF,36,00,00,00,3E,
552000,0000018E,false,Rx,0,3,00,04,3A,00,00,00,00,00,
553000,00000039,false,Rx,0,2,00,2A,00,00,00,00,00,00,
556000,000001A6,false,Rx,0,8,02,00,00,68,17,00,00,0F,
558000,00000158,false,Rx,0,8,20,26,06,B4,20,26,E0,03,
558000,00000188,false,Rx,0,6,05,05,80,08,00,76,00,00,
560000,00000136,false,Rx,0,8,00,00,00,0C,00,00,00,20,
0,0000013A,false,Rx,0,8,00,05,00,00,00,00,00,23,
0,0000013F,false,Rx,0,8,00,7D,00,85,00,0A,00,28,
561000,00000156,false,Rx,0,6,00,22,00,01,07,2E,00,00,
561000,0000017C,false,Rx,0,8,00,00,06,B7,82,00,00,20,
561000,000001DC,false,Rx,0,4,02,06,B7,13,00,00,00,00,
561000,00000097,false,Rx,0,8,81,20,40,01,FA,00,00,2D,
562000,0000015A,false,Rx,0,8,00,00,FF,36,00,00,00,01,
562000,000001A4,false,Rx,0,8,00,69,00,00,00,00,00,28,
562000,0000018E,false,Rx,0,3,00,08,09,00,00,00,00,00,
562000,000001AA,false,Rx,0,8,7F,FF,00,00,00,00,69,2E,
562000,000001B0,false,Rx,0,7,80,D0,7F,FF,00,00,21,00,
563000,000001D0,false,Rx,0,8,41,78,82,B5,05,82,0B,E4,
563000,000001E7,false,Rx,0,4,1A,40,68,23,00,00,00,00,
564000,00000039,false,Rx,0,2,00,39,00,00,00,00,00,00,
567000,00000158,false,Rx,0,8,20,1F,06,B4,20,1F,E0,12,
568000,00000188,false,Rx,0,6,05,05,80,08,00,49,00,00,
569000,000001C0,false,Rx,0,7,00,00,00,00,00,00,0B,00,
569000,00000136,false,Rx,0,8,00,00,00,0C,01,00,00,3E,
570000,0000013A,false,Rx,0,8,00,07,00,00,00,00,00,30,
570000,0000013F,false,Rx,0,8,00,7D,00,91,00,00,00,34,
570000,00000156,false,Rx,0,6,00,22,00,01,07,3D,00,00,
570000,0000017C,false,Rx,0,8,00,00,06,B7,82,00,00,3F,
571000,00000097,false,Rx,0,8,81,20,40,01,FA,00,00,3C,
571000,0000015A,false,Rx,0,8,00,00,FF,79,00,00,00,19,
572000,0000018E,false,Rx,0,3,00,07,19,00,00,00,00,00,
575000,00000039,false,Rx,0,2,00,0C,00,00,00,00,00,00,
577000,000001A6,false,Rx,0,8,02,00,00,68,18,00,00,1D,
577000,00000294,false,Rx,0,8,00,15,00,03,EE,80,20,19,
578000,00000158,false,Rx,0,8,20,24,06,B3,20,24,E0,26,
578000,00000188,false,Rx,0,6,05,05,80,08,00,58,00,00,
580000,00000136,false,Rx,0,8,00,00,00,0C,01,00,00,01,
580000,0000013A,false,Rx,0,8,00,0A,00,00,00,00,00,00,
580000,0000013F,false,Rx,0,8,00,7E,00,9F,FF,E2,00,0A,
580000,00000156,false,Rx,0,6,00,22,00,02,07,0F,00,00,
581000,0000017C,false,Rx,0,8,00,00,06,B4,82,00,00,05,
581000,000001DC,false,Rx,0,4,02,06,B4,25,00,00,00,00,
581000,00000097,false,Rx,0,8,81,20,40,01,FA,00,00,0F,
582000,0000015A,false,Rx,0,8,00,00,FF,79,00,00,00,28,
582000,000001A4,false,Rx,0,8,00,69,00,00,00,00,00,37,
582000,0000018E,false,Rx,0,3,00,04,2B,00,00,00,00,00,
583000,000001AA,false,Rx,0,8,7F,FF,00,00,00,00,69,3D,
583000,000001B0,false,Rx,0,7,80,D0,7F,FF,00,00,30,00,
583000,000001D0,false,Rx,0,8,41,5A,82,B5,05,6A,0A,D0,
583000,000001E7,false,Rx,0,4,1A,40,68,32,00,00,00,00,
586000,00000039,false,Rx,0,2,00,1B,00,00,00,00,00,00,
587000,00000158,false,Rx,0,8,20,1D,06,B6,20,1D,E0,32,
587000,00000188,false,Rx,0,6,05,05,80,08,00,67,00,00,
590000,000001C0,false,Rx,0,7,00,00,00,00,00,00,1A,00,
590000,00000136,false,Rx,0,8,00,00,00,0C,02,00,00,1F,
590000,0000013A,false,Rx,0,8,00,0D,00,00,00,00,00,1C,
590000,0000013F,false,Rx,0,8,00,7E,00,B0,00,00,00,14,
591000,00000156,false,Rx,0,6,00,22,00,00,07,10,00,00,
591000,0000017C,false,Rx,0,8,00,00,06,B4,82,00,00,14,
591000,00000097,false,Rx,0,8,81,20,40,01,FA,00,00,1E,
0,0000015A,false,Rx,0,8,00,00,FF,79,00,00,00,37,
0,0000018E,false,Rx,0,3,00,09,35,00,00,00,00,00,
595000,0000033D,false,Rx,0,4,00,00,00,14,00,00,00,00,
596000,000001A6,false,Rx,0,8,02,00,00,68,18,00,00,2C,
598000,00000039,false,Rx,0,2,00,2A,00,00,00,00,00,00,
0,00000158,false,Rx,0,8,20,14,06,B1,20,14,E0,0C,
0,00000188,false,Rx,0,6,05,05,80,08,00,76,00,00,
600000,00000136,false,Rx,0,8,00,00,00,0C,03,00,00,2D,
600000,0000013A,false,Rx,0,8,00,11,00,00,00,00,00,26,
0,0000013F,false,Rx,0,8,00,7E,00,C6,00,00,00,2C,
0,00000156,false,Rx,0,6,00,22,00,01,07,2E,00,00,
600000,0000017C,false,Rx,0,8,00,00,06,B4,82,00,00,23,
600000,000001DC,false,Rx,0,4,02,06,B4,34,00,00,00,00,
601000,00000097,false,Rx,0,8,81,20,40,01,FD,00,00,2A,
601000,0000015A,false,Rx,0,8,00,00,FF,79,00,00,00,0A,
602000,000001A4,false,Rx,0,8,00,69,00,00,00,00,00,0A,
602000,0000018E,false,Rx,0,3,00,05,0C,00,00,00,00,00,
0,000001AA,false,Rx,0,8,7F,FF,00,00,00,00,69,00,
0,000001B0,false,Rx,0,7,80,D0,7F,FF,00,00,03,00,
602000,000001D0,false,Rx,0,8,41,54,82,71,05,BA,0A,AC,
604000,000001E7,false,Rx,0,4,1A,40,68,05,00,00,00,00,
0,00000158,false,Rx,0,8,20,15,06,B0,20,15,E0,1A,
0,00000039,false,Rx,0,2,00,39,00,00,00,00,00,00,
608000,00000188,false,Rx,0,6,05,05,80,08,00,49,00,00,
0,000001C0,false,Rx,0,7,00,00,00,00,00,00,29,00,
0,00000136,false,Rx,0,8,00,00,00,0C,03,00,00,3C,
0,0000013A,false,Rx,0,8,00,14,00,00,00,00,00,32,
0,0000013F,false,Rx,0,8,00,87,00,D7,00,00,00,3F,
610000,00000156,false,Rx,0,6,00,22,00,01,07,3D,00,00,
611000,0000017C,false,Rx,0,8,00,00,06,B4,82,00,00,32,
611000,00000097,false,Rx,0,8,81,20,40,01,FF,00,00,37,
0,0000015A,false,Rx,0,8,00,00,FF,79,00,00,00,19,
0,0000018E,false,Rx,0,3,00,06,1A,00,00,00,00,00,
616000,000001A6,false,Rx,0,8,02,00,00,68,18,00,00,3B,
616000,00000294,false,Rx,0,8,00,15,00,03,EE,80,20,28,
617000,00000158,false,Rx,0,8,20,0D,06,AF,20,0D,E0,2D,
617000,00000188,false,Rx,0,6,05,05,80,08,00,58,00,00,
0,00000039,false,Rx,0,2,00,0C,00,00,00,00,00,00,
0,00000305,false,Rx,0,2,0E,11,00,00,00,00,00,00,
619000,00000136,false,Rx,0,8,00,00,00,0D,04,00,00,0D,
619000,0000013A,false,Rx,0,8,00,17,00,00,00,00,00,02,
620000,0000013F,false,Rx,0,8,00,99,00,E9,FF,D8,00,09,
620000,00000156,false,Rx,0,6,00,22,00,01,07,00,00,00,
620000,0000017C,false,Rx,0,8,00,00,06,B0,82,00,00,09,
620000,000001DC,false,Rx,0,4,02,06,B0,0B,00,00,00,00,
620000,00000097,false,Rx,0,8,81,20,40,01,FD,00,00,0C,
0,0000030C,false,Rx,0,8,21,C9,C6,FF,00,80,80,3E,
0,00000320,false,Rx,0,3,00,00,03,00,00,00,00,00,
621000,00000324,false,Rx,0,8,79,2A,32,66,00,00,00,02,
621000,0000015A,false,Rx,0,8,00,00,FF,79,00,00,00,28,
621000,0000018E,false,Rx,0,3,00,02,2D,00,00,00,00,00,
621000,000001A4,false,Rx,0,8,00,69,00,00,00,00,00,19,
623000,000001AA,false,Rx,0,8,7F,FF,00,00,00,00,69,1F,
623000,000001B0,false,Rx,0,7,80,D0,7F,FF,00,00,12,00,
0,000001D0,false,Rx,0,8,41,48,82,6D,04,D2,08,D4,
0,000001E7,false,Rx,0,4,1A,40,68,14,00,00,00,00,
0,0000037C,false,Rx,0,8,E4,00,E4,31,00,00,00,0A,
0,000003D7,false,Rx,0,8,B0,00,00,00,00,00,00,06,
0,00000400,false,Rx,0,5,00,00,00,00,04,00,00,00,
0,0000040C,false,Rx,0,8,17,00,00,00,00,00,00,00,
0,00000454,false,Rx,0,6,4D,F3,02,3A,50,04,00,00,
624000,00000465,false,Rx,0,7,FF,FF,FF,FF,FF,FF,05,00,
624000,000006C1,false,Rx,0,1,32,00,00,00,00,00,00,00,
628000,00000158,false,Rx,0,8,20,12,06,B1,20,12,E1,3C,
628000,00000188,false,Rx,0,6,05,05,80,08,00,67,00,00,
630000,000001C0,false,Rx,0,7,00,00,00,00,00,00,38,00,
630000,00000136,false,Rx,0,8,00,00,00,0E,04,00,00,1B,
630000,0000013A,false,Rx,0,8,00,19,00,00,00,00,00,1F,
630000,00000039,false,Rx,0,2,00,1B,00,00,00,00,00,00,
631000,0000013F,false,Rx,0,8,00,B4,00,F3,00,14,00,1E,
631000,00000156,false,Rx,0,6,00,22,00,01,07,1F,00,00,
0,0000017C,false,Rx,0,8,00,00,06,B2,82,00,00,16,
0,00000097,false,Rx,0,8,81,20,40,01,FD,00,00,1B,
0,0000015A,false,Rx,0,8,00,00,FF,79,00,00,00,37,
0,0000018E,false,Rx,0,3,00,04,3A,00,00,00,00,00,
637000,000001A6,false,Rx,0,8,02,00,00,68,19,00,00,0D,
637000,00000309,false,Rx,0,8,21,AF,00,00,00,56,00,41,
637000,00000374,false,Rx,0,7,00,00,00,00,00,00,0A,00,
637000,00000377,false,Rx,0,8,04,10,58,FA,2B,00,82,05,
637000,00000378,false,Rx,0,8,07,90,F2,23,50,20,00,09,
638000,00000158,false,Rx,0,8,20,16,06,B1,20,16,E1,07,
638000,00000188,false,Rx,0,6,05,05,80,08,00,76,00,00,
640000,00000136,false,Rx,0,8,00,00,00,0F,04,00,00,29,
640000,0000013A,false,Rx,0,8,00,1B,00,00,00,00,00,2C,
641000,0000013F,false,Rx,0,8,00,D8,00,FB,00,00,00,24,
641000,00000156,false,Rx,0,6,00,22,00,00,07,2F,00,00,
641000,0000017C,false,Rx,0,8,00,00,06,B2,82,00,00,25,
641000,000001DC,false,Rx,0,4,02,06,B2,18,00,00,00,00,
641000,00000039,false,Rx,0,2,00,2A,00,00,00,00,00,00,
641000,00000097,false,Rx,0,8,81,20,40,01,FE,00,00,29,
642000,0000015A,false,Rx,0,8,00,00,FF,79,00,00,00,0A,
642000,000001A4,false,Rx,0,8,00,69,00,00,00,00,00,28,
0,0000018E,false,Rx,0,3,00,03,0E,00,00,00,00,00,
0,000001AA,false,Rx,0,8,7F,FF,00,00,00,00,69,2E,
642000,000001B0,false,Rx,0,7,80,D0,7F,FF,00,00,21,00,
642000,000001D0,false,Rx,0,8,41,42,82,91,05,02,0A,DD,
643000,000001E7,false,Rx,0,4,1A,40,68,23,00,00,00,00,
648000,00000158,false,Rx,0,8,20,12,06,AE,20,12,E1,12,
648000,00000188,false,Rx,0,6,05,05,80,08,00,49,00,00,
649000,000001C0,false,Rx,0,7,00,00,00,00,00,00,0B,00,
649000,00000136,false,Rx,0,8,00,00,00,10,04,00,00,36,
649000,0000013A,false,Rx,0,8,00,1B,00,00,00,00,00,3B,
651000,0000013F,false,Rx,0,8,00,F3,01,00,FF,F6,00,3C,
0,00000156,false,Rx,0,6,00,22,00,00,07,3E,00,00,
0,0000017C,false,Rx,0,8,00,00,06,B1,82,00,00,35,
651000,00000097,false,Rx,0,8,81,20,40,01,FE,00,00,38,
0,0000015A,false,Rx,0,8,00,00,FF,79,00,00,00,19,
0,00000039,false,Rx,0,2,00,39,00,00,00,00,00,00,
652000,0000018E,false,Rx,0,3,00,04,1C,00,00,00,00,00,
657000,000001A6,false,Rx,0,8,02,00,00,68,18,00,00,1D,
657000,00000294,false,Rx,0,8,00,15,00,03,EE,80,20,37,
658000,00000158,false,Rx,0,8,20,11,06,B1,20,11,E1,2F,
658000,00000188,false,Rx,0,6,05,05,80,08,00,58,00,00,
0,00000136,false,Rx,0,8,00,00,00,10,05,00,00,08,
0,0000013A,false,Rx,0,8,00,1C,00,00,00,00,00,0D,
0,0000013F,false,Rx,0,8,00,FC,01,05,00,00,00,04,
0,00000156,false,Rx,0,6,00,22,00,00,07,01,00,00,
660000,0000017C,false,Rx,0,8,00,00,06,B1,82,00,00,08,
661000,000001DC,false,Rx,0,4,02,06,B1,28,00,00,00,00,
661000,00000097,false,Rx,0,8,81,20,40,01,FE,00,00,0B,
661000,0000015A,false,Rx,0,8,00,00,FF,79,00,00,00,28,
661000,000001A4,false,Rx,0,8,00,69,00,00,00,00,00,37,
0,0000018E,false,Rx,0,3,00,07,28,00,00,00,00,00,
0,000001AA,false,Rx,0,8,7F,FF,00,00,00,00,69,3D,
663000,000001B0,false,Rx,0,7,80,D0,7F,FF,00,00,30,00,
0,000001D0,false,Rx,0,8,41,5A,82,85,05,02,09,D2,
0,00000039,false,Rx,0,2,00,0C,00,00,00,00,00,00,
0,000001E7,false,Rx,0,4,1A,00,68,36,00,00,00,00,
667000,00000158,false,Rx,0,8,20,24,06,B8,20,24,E1,3F,
667000,00000188,false,Rx,0,6,05,05,80,08,00,67,00,00,
670000,000001C0,false,Rx,0,7,00,00,00,00,00,00,1A,00,
670000,00000136,false,Rx,0,8,00,00,00,10,05,00,00,17,
670000,0000013A,false,Rx,0,8,00,1D,00,00,00,00,00,1B,
670000,0000013F,false,Rx,0,8,00,F9,01,05,00,A0,00,1C,
0,00000156,false,Rx,0,6,00,1F,00,0E,07,16,00,00,
0,0000017C,false,Rx,0,8,00,00,06,C1,82,00,00,16,
670000,00000097,false,Rx,0,8,81,20,40,01,FD,00,00,1B,
0,0000015A,false,Rx,0,8,00,00,FF,79,00,00,00,37,
0,0000018E,false,Rx,0,3,00,05,39,00,00,00,00,00,
674000,00000039,false,Rx,0,2,00,1B,00,00,00,00,00,00,
677000,000001A6,false,Rx,0,8,02,00,00,68,18,00,00,2C,
0,00000158,false,Rx,0,8,20,2F,06,B9,20,2F,E1,0B,
0,00000188,false,Rx,0,6,05,05,80,08,00,76,00,00,
679000,00000136,false,Rx,0,8,00,00,00,10,05,00,00,26,
679000,0000013A,false,Rx,0,8,00,1D,00,00,00,00,00,2A,
680000,0000013F,false,Rx,0,8,00,F9,01,09,00,00,00,21,
680000,00000156,false,Rx,0,6,00,1E,00,15,07,2E,00,00,
0,0000017C,false,Rx,0,8,00,00,06,C1,82,00,00,25,
0,000001DC,false,Rx,0,4,02,06,C1,36,00,00,00,00,
681000,00000097,false,Rx,0,8,80,E0,30,01,FF,00,00,2E,
682000,0000015A,false,Rx,0,8,00,00,FF,79,00,00,00,0A,
0,000001A4,false,Rx,0,8,00,69,00,00,00,00,00,0A,
0,0000018E,false,Rx,0,3,00,07,0A,00,00,00,00,00,
682000,000001AA,false,Rx,0,8,7F,FF,00,00,00,00,69,00,
682000,000001B0,false,Rx,0,7,80,D0,7F,FF,00,00,03,00,
0,000001D0,false,Rx,0,8,41,66,82,79,05,BA,0A,0B,
0,000001E7,false,Rx,0,4,1A,40,68,05,00,00,00,00,
685000,00000039,false,Rx,0,2,00,2A,00,00,00,00,00,00,
688000,00000158,false,Rx,0,8,20,43,06,B7,20,43,E1,10,
688000,00000188,false,Rx,0,6,05,05,80,08,00,49,00,00,
690000,000001C0,false,Rx,0,7,00,00,00,00,00,00,29,00,
690000,00000136,false,Rx,0,8,00,00,00,10,05,00,00,35,
690000,0000013A,false,Rx,0,8,00,1D,00,00,00,00,00,39,
0,0000013F,false,Rx,0,8,00,F6,01,09,00,64,00,39,
0,00000156,false,Rx,0,6,00,1C,00,11,07,33,00,00,
690000,0000017C,false,Rx,0,8,00,00,06,CB,82,00,00,3A,
691000,00000097,false,Rx,0,8,80,E0,30,02,01,00,00,39,
692000,0000015A,false,Rx,0,8,00,00,FF,79,00,00,00,19,
692000,0000018E,false,Rx,0,3,00,0B,15,00,00,00,00,00,
694000,0000033D,false,Rx,0,4,00,00,00,23,00,00,00,00,
696000,00000039,false,Rx,0,2,00,39,00,00,00,00,00,00,
696000,000001A6,false,Rx,0,8,02,00,00,68,18,00,00,3B,
696000,00000294,false,Rx,0,8,00,15,00,03,EE,80,20,0A,
698000,00000158,false,Rx,0,8,20,39,06,BA,20,39,E1,22,
698000,00000188,false,Rx,0,6,05,05,80,08,00,58,00,00,
700000,00000136,false,Rx,0,8,00,00,00,10,05,00,00,08,
700000,0000013A,false,Rx,0,8,00,1D,00,00,00,00,00,0C,
0,0000013F,false,Rx,0,8,00,F6,01,09,00,28,00,0C,
0,00000156,false,Rx,0,6,00,1B,00,0E,07,0B,00,00,
0,0000017C,false,Rx,0,8,00,00,06,CF,82,00,00,09,
0,000001DC,false,Rx,0,4,02,06,CF,0B,00,00,00,00,
701000,00000097,false,Rx,0,8,80,E0,40,02,02,00,00,0A,
702000,0000015A,false,Rx,0,8,00,00,FF,79,00,00,00,28,
702000,000001A4,false,Rx,0,8,00,69,00,00,00,00,00,19,
702000,0000018E,false,Rx,0,3,00,08,27,00,00,00,00,00,
702000,000001AA,false,Rx,0,8,7F,FF,00,00,00,00,69,1F,
703000,000001B0,false,Rx,0,7,80,90,7F,FF,00,00,16,00,
703000,000001D0,false,Rx,0,8,41,36,82,8D,04,B2,08,9B,
703000,000001E7,false,Rx,0,4,1A,00,68,18,00,00,00,00,
707000,00000039,false,Rx,0,2,00,0C,00,00,00,00,00,00,
708000,00000158,false,Rx,0,8,20,32,06,C1,20,32,E1,37,
708000,00000188,false,Rx,0,6,05,05,80,08,00,67,00,00,
710000,000001C0,false,Rx,0,7,00,00,00,00,00,00,38,00,
710000,00000136,false,Rx,0,8,00,00,00,10,05,00,00,17,
710000,0000013A,false,Rx,0,8,00,1D,00,00,00,00,00,1B,
710000,0000013F,false,Rx,0,8,00,F6,01,09,00,00,00,15,
711000,00000156,false,Rx,0,6,00,1A,00,0B,07,1E,00,00,
711000,0000017C,false,Rx,0,8,00,00,06,CF,82,00,00,18,
711000,00000097,false,Rx,0,8,80,E0,40,02,00,00,00,1B,
0,0000015A,false,Rx,0,8,00,00,FF,79,00,00,00,37,
0,0000018E,false,Rx,0,3,00,08,36,00,00,00,00,00,
717000,000001A6,false,Rx,0,8,02,00,00,68,18,00,00,0E,
0,00000158,false,Rx,0,8,20,32,06,C0,20,32,E1,0B,
0,00000039,false,Rx,0,2,00,1B,00,00,00,00,00,00,
718000,00000188,false,Rx,0,6,05,05,80,08,00,76,00,00,
720000,00000136,false,Rx,0,8,00,00,00,10,05,00,00,26,
720000,0000013A,false,Rx,0,8,00,1D,00,00,00,00,00,2A,
720000,0000013F,false,Rx,0,8,00,F6,01,08,FF,F6,00,22,
720000,00000156,false,Rx,0,6,00,19,00,0A,07,2F,00,00,
0,0000017C,false,Rx,0,8,00,00,06,CE,82,00,00,28,
0,000001DC,false,Rx,0,4,02,06,CE,1B,00,00,00,00,
721000,00000097,false,Rx,0,8,81,20,40,02,01,00,00,24,
0,0000030C,false,Rx,0,8,21,BC,C6,FF,00,80,80,0F,
0,00000320,false,Rx,0,3,00,00,12,00,00,00,00,00,
722000,00000324,false,Rx,0,8,79,2A,32,67,00,03,00,1D,
0,0000015A,false,Rx,0,8,00,00,FF,79,00,00,00,0A,
0,0000018E,false,Rx,0,3,00,0D,04,00,00,00,00,00,
722000,000001A4,false,Rx,0,8,00,69,00,00,00,00,00,28,
722000,000001AA,false,Rx,0,8,7F,FF,00,00,00,00,69,2E,
723000,000001B0,false,Rx,0,7,80,90,7F,FF,00,00,25,00,
723000,000001D0,false,Rx,0,8,41,36,82,91,04,B2,09,3B,
723000,000001E7,false,Rx,0,4,1A,40,69,22,00,00,00,00,
0,0000037C,false,Rx,0,8,E2,00,E2,31,00,00,00,1D,
0,00000305,false,Rx,0,2,0E,20,00,00,00,00,00,00,
723000,00000406,false,Rx,0,5,00,00,00,03,29,00,00,00,
728000,00000158,false,Rx,0,8,20,44,06,BC,20,44,E1,19,
728000,00000188,false,Rx,0,6,05,05,80,08,00,49,00,00,
729000,00000039,false,Rx,0,2,00,2A,00,00,00,00,00,00,
729000,000001C0,false,Rx,0,7,00,00,00,00,00,00,0B,00,
729000,00000136,false,Rx,0,8,00,00,00,10,05,00,00,35,
729000,0000013A,false,Rx,0,8,00,1E,00,00,00,00,00,38,
731000,0000013F,false,Rx,0,8,00,F6,01,0A,00,00,00,32,
731000,00000156,false,Rx,0,6,00,18,00,0A,07,3F,00,00,
731000,0000017C,false,Rx,0,8,00,00,06,CE,82,00,00,37,
731000,00000097,false,Rx,0,8,80,E0,40,02,00,00,00,39,
0,0000015A,false,Rx,0,8,00,00,FF,79,00,00,00,19,
0,0000018E,false,Rx,0,3,00,06,1A,00,00,00,00,00,
737000,000001A6,false,Rx,0,8,02,00,00,68,18,00,00,1D,
737000,00000294,false,Rx,0,8,00,15,00,03,EE,80,20,19,
737000,00000309,false,Rx,0,8,21,CE,00,00,00,56,00,5F,
737000,00000374,false,Rx,0,7,00,00,00,00,00,00,19,00,
737000,00000377,false,Rx,0,8,04,10,58,FA,2B,00,82,14,
737000,00000378,false,Rx,0,8,07,90,F2,23,50,20,00,18,
738000,00000405,false,Rx,0,8,00,02,00,00,00,00,00,1C,
738000,00000158,false,Rx,0,8,20,55,06,BE,20,55,E1,22,
738000,00000188,false,Rx,0,6,05,05,80,08,00,58,00,00,
738000,00000428,false,Rx,0,7,00,00,00,00,00,00,19,00,
740000,00000136,false,Rx,0,8,00,00,00,10,05,00,00,08,
0,0000013A,false,Rx,0,8,00,1F,00,00,00,00,00,0A,
0,00000039,false,Rx,0,2,00,39,00,00,00,00,00,00,
740000,0000013F,false,Rx,0,8,00,F8,01,10,FF,9C,00,09,
740000,00000156,false,Rx,0,6,00,18,00,05,07,07,00,00,
740000,0000017C,false,Rx,0,8,00,00,06,C4,82,00,00,04,
740000,00000097,false,Rx,0,8,80,E0,30,01,FF,00,00,00,
740000,000001DC,false,Rx,0,4,02,06,C4,24,00,00,00,00,
742000,0000015A,false,Rx,0,8,00,00,FF,79,00,00,00,28,
742000,000001A4,false,Rx,0,8,00,69,00,00,00,00,00,37,
742000,0000018E,false,Rx,0,3,00,01,2E,00,00,00,00,00,
742000,000001AA,false,Rx,0,8,7F,FF,00,00,00,00,69,3D,
742000,000001B0,false,Rx,0,7,80,90,7F,FF,00,00,34,00,
0,000001D0,false,Rx,0,8,41,4E,82,85,04,EA,0A,AC,
0,000001E7,false,Rx,0,4,1A,40,68,32,00,00,00,00,
748000,00000158,false,Rx,0,8,20,6D,06,C3,20,6D,E1,39,
748000,00000188,false,Rx,0,6,05,05,80,08,00,67,00,00,
750000,000001C0,false,Rx,0,7,00,00,00,00,00,00,1A,00,
750000,00000136,false,Rx,0,8,00,00,00,10,05,00,00,17,
750000,0000013A,false,Rx,0,8,00,1F,00,00,00,00,00,19,
750000,0000013F,false,Rx,0,8,00,F8,01,12,00,00,00,19,
750000,00000156,false,Rx,0,6,00,18,00,02,07,19,00,00,
750000,0000017C,false,Rx,0,8,00,00,06,C4,82,00,00,13,
0,00000097,false,Rx,0,8,80,E0,30,02,01,00,00,1B,
0,00000039,false,Rx,0,2,00,0C,00,00,00,00,00,00,
751000,0000015A,false,Rx,0,8,00,00,FF,79,00,00,00,37,
752000,0000018E,false,Rx,0,3,00,04,3A,00,00,00,00,00,
756000,000001A6,false,Rx,0,8,02,00,00,68,17,00,00,2D,
758000,00000158,false,Rx,0,8,20,60,06,C3,20,60,E1,06,
758000,00000188,false,Rx,0,6,05,05,80,08,00,76,00,00,
759000,00000136,false,Rx,0,8,00,00,00,10,05,00,00,26,
760000,0000013A,false,Rx,0,8,00,20,00,00,00,00,00,26,
760000,0000013F,false,Rx,0,8,00,F9,01,18,FF,CE,00,29,
760000,00000156,false,Rx,0,6,00,17,00,03,07,28,00,00,
760000,0000017C,false,Rx,0,8,00,00,06,BF,82,00,00,28,
760000,000001DC,false,Rx,0,4,02,06,BF,39,00,00,00,00,
0,00000097,false,Rx,0,8,80,E0,30,02,00,00,00,2B,
0,00000421,false,Rx,0,5,00,00,00,01,2E,00,00,00,
762000,0000015A,false,Rx,0,8,00,00,FF,79,00,00,00,0A,
762000,00000039,false,Rx,0,2,00,1B,00,00,00,00,00,00,
762000,0000018E,false,Rx,0,3,00,00,01,00,00,00,00,00,
762000,000001A4,false,Rx,0,8,00,69,00,00,00,00,00,0A,
762000,000001AA,false,Rx,0,8,7F,FF,00,00,00,00,69,00,
762000,000001B0,false,Rx,0,7,80,90,7F,FF,00,00,07,00,
0,000001D0,false,Rx,0,8,41,48,82,61,05,02,09,62,
0,000001E7,false,Rx,0,4,1A,00,68,09,00,00,00,00,
768000,00000158,false,Rx,0,8,20,4B,06,BF,20,4B,E1,18,
768000,00000188,false,Rx,0,6,05,05,80,08,00,49,00,00,
770000,000001C0,false,Rx,0,7,00,00,00,00,00,00,29,00,
770000,00000136,false,Rx,0,8,00,00,00,10,06,00,00,34,
770000,0000013A,false,Rx,0,8,00,21,00,00,00,00,00,34,
770000,0000013F,false,Rx,0,8,00,F8,01,1C,00,28,00,33,
770000,00000156,false,Rx,0,6,00,18,00,00,07,39,00,00,
771000,0000017C,false,Rx,0,8,00,00,06,C3,82,00,00,32,
771000,00000097,false,Rx,0,8,80,A0,30,02,01,00,00,3D,
772000,0000015A,false,Rx,0,8,00,00,FF,79,00,00,00,19,
772000,0000018E,false,Rx,0,3,00,02,1E,00,00,00,00,00,
773000,00000039,false,Rx,0,2,00,2A,00,00,00,00,00,00,
776000,000001A6,false,Rx,0,8,02,00,00,68,17,00,00,3C,
776000,00000294,false,Rx,0,8,00,15,00,03,EE,80,20,28,
777000,00000158,false,Rx,0,8,20,48,06,BA,20,48,E1,22,
777000,00000188,false,Rx,0,6,05,05,80,08,00,58,00,00,
779000,00000136,false,Rx,0,8,00,00,00,10,06,00,00,07,
780000,0000013A,false,Rx,0,8,00,21,00,00,00,00,00,07,
0,0000013F,false,Rx,0,8,00,F8,01,24,00,00,00,07,
0,00000156,false,Rx,0,6,00,18,00,01,07,0B,00,00,
780000,0000017C,false,Rx,0,8,00,00,06,C3,82,00,00,05,
780000,000001DC,false,Rx,0,4,02,06,C3,07,00,00,00,00,
781000,00000097,false,Rx,0,8,80,A0,30,02,04,00,00,0D,
782000,0000015A,false,Rx,0,8,00,00,FF,79,00,00,00,28,
782000,000001A4,false,Rx,0,8,00,69,00,00,00,00,00,19,
782000,0000018E,false,Rx,0,3,00,02,2D,00,00,00,00,00,
782000,000001AA,false,Rx,0,8,7F,FF,00,00,00,00,69,1F,
783000,000001B0,false,Rx,0,7,80,50,7F,FF,00,00,1A,00,
783000,000001D0,false,Rx,0,8,41,36,82,55,04,EA,09,30,
783000,000001E7,false,Rx,0,4,1A,40,68,14,00,00,00,00,
784000,00000039,false,Rx,0,2,00,39,00,00,00,00,00,00,
788000,00000158,false,Rx,0,8,20,3F,06,B9,20,3F,E1,36,
788000,00000188,false,Rx,0,6,05,05,80,08,00,67,00,00,
789000,000001C0,false,Rx,0,7,00,00,00,00,00,00,38,00,
790000,00000136,false,Rx,0,8,00,00,00,10,06,00,00,16,
790000,0000013A,false,Rx,0,8,00,22,00,00,00,00,00,15,
791000,0000013F,false,Rx,0,8,00,F9,01,2C,FF,D8,00,1A,
791000,00000156,false,Rx,0,6,00,18,00,01,07,1A,00,00,
791000,0000017C,false,Rx,0,8,00,00,06,BF,82,00,00,19,
791000,00000097,false,Rx,0,8,80,A0,30,02,04,00,00,1C,
792000,0000015A,false,Rx,0,8,00,00,FF,79,00,00,00,37,
792000,0000018E,false,Rx,0,3,00,04,3A,00,00,00,00,00,
0,0000033D,false,Rx,0,4,00,00,00,32,00,00,00,00,
0,00000039,false,Rx,0,2,00,0C,00,00,00,00,00,00,
796000,000001A6,false,Rx,0,8,02,00,00,68,18,00,00,0E,
798000,00000158,false,Rx,0,8,20,2F,06,B8,20,2F,E1,0C,
798000,00000188,false,Rx,0,6,05,05,80,08,00,76,00,00,
799000,00000136,false,Rx,0,8,00,00,00,10,06,00,00,25,
800000,0000013A,false,Rx,0,8,00,23,00,00,00,00,00,23,
800000,0000013F,false,Rx,0,8,00,F9,01,33,00,00,00,24,
800000,00000156,false,Rx,0,6,00,17,00,01,07,2A,00,00,
800000,0000017C,false,Rx,0,8,00,00,06,BF,82,00,00,28,
800000,000001DC,false,Rx,0,4,02,06,BF,1B,00,00,00,00,
801000,00000097,false,Rx,0,8,80,A0,30,02,02,00,00,2D,
802000,0000015A,false,Rx,0,8,00,00,FF,79,00,00,00,0A,
802000,000001A4,false,Rx,0,8,00,69,00,00,00,00,00,28,
0,0000018E,false,Rx,0,3,00,00,01,00,00,00,00,00,
0,000001AA,false,Rx,0,8,7F,FF,00,00,00,00,69,2E,
802000,000001B0,false,Rx,0,7,80,50,7F,FF,00,00,29,00,
803000,000001D0,false,Rx,0,8,41,3C,82,61,04,32,07,C9,
803000,000001E7,false,Rx,0,4,1A,80,68,2F,00,00,00,00,
806000,00000039,false,Rx,0,2,00,1B,00,00,00,00,00,00,
808000,00000158,false,Rx,0,8,20,18,06,AE,20,18,E1,16,
808000,00000188,false,Rx,0,6,05,05,80,08,00,49,00,00,
809000,000001C0,false,Rx,0,7,00,00,00,00,00,00,0B,00,
809000,00000136,false,Rx,0,8,00,00,00,11,06,00,00,33,
0,0000013A,false,Rx,0,8,00,23,00,00,00,00,00,32,
0,0000013F,false,Rx,0,8,01,19,01,3B,FF,2E,00,3A,
0,00000156,false,Rx,0,6,00,17,00,02,07,38,00,00,
810000,0000017C,false,Rx,0,8,00,00,06,AA,82,00,00,3D,
811000,00000097,false,Rx,0,8,80,A0,30,02,03,00,00,3B,
811000,0000015A,false,Rx,0,8,00,00,FF,79,00,00,00,19,
811000,0000018E,false,Rx,0,3,00,02,1E,00,00,00,00,00,
816000,000001A6,false,Rx,0,8,02,00,00,68,17,00,00,1E,
816000,00000294,false,Rx,0,8,00,15,00,03,EE,80,20,37,
817000,00000039,false,Rx,0,2,00,2A,00,00,00,00,00,00,
818000,00000158,false,Rx,0,8,1F,DC,06,A7,1F,DC,E1,20,
818000,00000188,false,Rx,0,6,05,05,80,08,00,58,00,00,
820000,00000136,false,Rx,0,8,00,00,00,12,07,00,00,04,
820000,0000013A,false,Rx,0,8,00,24,00,00,00,00,00,04,
820000,0000013F,false,Rx,0,8,01,2B,01,43,00,00,00,0F,
820000,00000156,false,Rx,0,6,00,18,00,01,07,0B,00,00,
821000,0000017C,false,Rx,0,8,00,00,06,AA,82,00,00,00,
821000,000001DC,false,Rx,0,4,02,06,AA,20,00,00,00,00,
821000,00000097,false,Rx,0,8,80,A0,30,02,02,00,00,0F,
0,0000030C,false,Rx,0,8,21,BD,C6,FF,00,80,80,1D,
0,00000320,false,Rx,0,3,00,00,21,00,00,00,00,00,
822000,00000324,false,Rx,0,8,79,2A,32,67,00,E6,00,2B,
0,0000015A,false,Rx,0,8,00,00,FF,79,00,00,00,28,
0,0000018E,false,Rx,0,3,00,04,2B,00,00,00,00,00,
822000,000001A4,false,Rx,0,8,00,69,00,00,00,00,00,37,
822000,000001AA,false,Rx,0,8,7F,FF,00,00,00,00,69,3D,
823000,000001B0,false,Rx,0,7,80,50,7F,FF,00,00,38,00,
823000,000001D0,false,Rx,0,8,41,36,82,79,04,EA,0A,75,
823000,000001E7,false,Rx,0,4,1A,40,68,32,00,00,00,00,
823000,0000037C,false,Rx,0,8,F9,00,F9,31,00,00,00,2C,
