Time Stamp,ID,Extended,Dir,Bus,LEN,D1,D2,D3,D4,D5,D6,D7,D8
0,00000136,false,Rx,0,8,00,00,00,12,06,00,00,32,
0,0000013A,false,Rx,0,8,00,00,00,00,00,00,00,37,
375000,0000013F,false,Rx,0,8,01,35,01,2F,00,00,00,37,
375000,0000017C,false,Rx,0,8,00,00,07,02,48,00,00,3C,
0,0000015A,false,Rx,0,8,00,00,00,43,00,00,00,2F,
0,000001A4,false,Rx,0,8,00,68,00,00,00,00,00,1A,
0,000001AA,false,Rx,0,8,7F,FF,00,00,00,00,68,10,
0,000001B0,false,Rx,0,7,81,10,7F,FF,00,00,1D,00,
0,00000156,false,Rx,0,6,FF,EF,00,00,07,28,00,00,
377000,000001D0,false,Rx,0,8,30,7A,60,98,C1,A9,84,03,
377000,000001E7,false,Rx,0,4,1A,00,68,18,00,00,00,00,
377000,00000158,false,Rx,0,8,17,C3,06,C3,17,C3,97,25,
377000,00000188,false,Rx,0,6,04,04,80,08,00,5A,00,00,
377000,0000018E,false,Rx,0,3,00,06,38,00,00,00,00,00,
0,00000097,false,Rx,0,8,81,20,50,02,00,00,00,15,
0,00000039,false,Rx,0,2,00,39,00,00,00,00,00,00,
0,00000136,false,Rx,0,8,00,00,00,12,06,00,00,05,
0,0000013A,false,Rx,0,8,00,00,00,00,00,00,00,0A,
384000,0000013F,false,Rx,0,8,01,34,01,2F,00,1E,00,0C,
385000,0000017C,false,Rx,0,8,00,00,07,05,48,00,00,0C,
0,000001DC,false,Rx,0,4,02,07,05,2E,00,00,00,00,
0,00000320,false,Rx,0,3,00,00,21,00,00,00,00,00,
385000,00000324,false,Rx,0,8,7C,46,23,72,46,DA,00,21,
385000,0000015A,false,Rx,0,8,00,00,00,43,00,00,00,3E,
385000,000001C0,false,Rx,0,7,00,00,10,00,00,00,37,00,
387000,0000037C,false,Rx,0,8,03,00,03,32,00,01,00,24,
387000,000003D7,false,Rx,0,8,B0,00,00,00,00,00,00,7F,
387000,00000156,false,Rx,0,6,FF,EF,00,00,07,37,00,00,
387000,000001A6,false,Rx,0,8,02,00,00,51,5B,80,00,34,
387000,00000294,false,Rx,0,8,00,15,00,03,FA,C1,20,26,
0,00000158,false,Rx,0,8,17,BE,06,C3,17,BE,97,30,
0,00000188,false,Rx,0,6,04,04,80,08,00,69,00,00,
0,0000018E,false,Rx,0,3,00,08,09,00,00,00,00,00,
392000,00000097,false,Rx,0,8,80,E0,40,01,FE,00,00,2E,
394000,00000039,false,Rx,0,2,00,0C,00,00,00,00,00,00,
395000,00000305,false,Rx,0,2,0E,11,00,00,00,00,00,00,
0,00000136,false,Rx,0,8,00,00,00,12,06,00,00,14,
0,0000013A,false,Rx,0,8,00,00,00,00,00,00,00,19,
395000,0000013F,false,Rx,0,8,01,34,01,23,00,00,00,16,
395000,0000017C,false,Rx,0,8,00,00,07,05,48,00,00,1B,
395000,0000033D,false,Rx,0,4,01,40,00,3D,00,00,00,00,
395000,0000015A,false,Rx,0,8,00,00,00,43,00,00,00,01,
395000,000001A4,false,Rx,0,8,00,68,00,00,00,00,00,29,
395000,000001AA,false,Rx,0,8,7F,FF,00,00,00,00,68,2F,
395000,000001B0,false,Rx,0,7,80,D0,7F,FF,00,00,21,00,
397000,00000156,false,Rx,0,6,FF,EF,00,01,07,09,00,00,
397000,000001D0,false,Rx,0,8,30,6A,60,68,C2,C9,84,9B,
397000,000001E7,false,Rx,0,4,1A,00,68,27,00,00,00,00,
0,00000158,false,Rx,0,8,17,BF,06,C3,17,BF,97,01,
0,00000188,false,Rx,0,6,04,04,80,08,00,78,00,00,
398000,0000018E,false,Rx,0,3,00,04,1C,00,00,00,00,00,
403000,00000097,false,Rx,0,8,80,E0,40,01,FD,00,00,3E,
0,00000136,false,Rx,0,8,00,00,00,12,06,00,00,23,
0,0000013A,false,Rx,0,8,00,00,00,00,00,00,00,28,
0,00000039,false,Rx,0,2,00,1B,00,00,00,00,00,00,
0,0000013F,false,Rx,0,8,01,35,01,24,FF,F6,00,20,
0,0000017C,false,Rx,0,8,00,00,07,04,48,00,00,2B,
0,000001DC,false,Rx,0,4,02,07,04,3E,00,00,00,00,
406000,0000015A,false,Rx,0,8,00,00,00,43,00,00,00,10,
406000,000001C0,false,Rx,0,7,00,00,10,00,00,00,0A,00,
407000,00000156,false,Rx,0,6,FF,EF,00,01,07,18,00,00,
407000,000001A6,false,Rx,0,8,02,00,00,51,5F,80,00,03,
0,00000158,false,Rx,0,8,17,C3,06,C5,17,C3,98,13,
0,00000188,false,Rx,0,6,04,04,80,08,00,4B,00,00,
409000,0000018E,false,Rx,0,3,00,06,29,00,00,00,00,00,
413000,00000097,false,Rx,0,8,80,A0,30,01,FD,00,00,06,
0,00000136,false,Rx,0,8,00,00,00,12,06,00,00,32,
0,0000013A,false,Rx,0,8,00,00,00,00,00,00,00,37,
0,0000013F,false,Rx,0,8,01,34,01,23,00,28,00,3A,
415000,0000017C,false,Rx,0,8,00,00,07,08,48,00,00,36,
416000,00000039,false,Rx,0,2,00,2A,00,00,00,00,00,00,
416000,0000015A,false,Rx,0,8,00,00,00,43,00,00,00,2F,
416000,000001A4,false,Rx,0,8,00,68,00,00,00,00,00,38,
416000,000001AA,false,Rx,0,8,7F,FF,00,00,00,00,68,3E,
417000,000001B0,false,Rx,0,7,80,90,7F,FF,00,00,34,00,
417000,00000156,false,Rx,0,6,FF,EF,00,00,07,28,00,00,
417000,000001D0,false,Rx,0,8,30,34,60,48,C2,81,86,09,
417000,000001E7,false,Rx,0,4,1A,00,68,36,00,00,00,00,
417000,0000030C,false,Rx,0,8,18,C0,28,46,01,60,90,1F,
418000,00000158,false,Rx,0,8,17,C9,06,C6,17,C9,98,25,
418000,00000188,false,Rx,0,6,04,04,80,08,00,5A,00,00,
419000,0000018E,false,Rx,0,3,00,0A,34,00,00,00,00,00,
423000,00000097,false,Rx,0,8,80,A0,30,01,FC,00,00,16,
424000,00000136,false,Rx,0,8,00,00,00,12,06,00,00,05,
424000,0000013A,false,Rx,0,8,00,00,00,00,00,00,00,0A,
424000,0000013F,false,Rx,0,8,01,34,01,23,00,00,00,07,
424000,0000017C,false,Rx,0,8,00,00,07,08,48,00,00,09,
424000,000001DC,false,Rx,0,4,02,07,08,0D,00,00,00,00,
426000,0000015A,false,Rx,0,8,00,00,00,43,00,00,00,3E,
426000,000001C0,false,Rx,0,7,00,00,10,00,00,00,19,00,
0,00000039,false,Rx,0,2,00,39,00,00,00,00,00,00,
0,00000156,false,Rx,0,6,FF,EF,00,00,07,37,00,00,
427000,000001A6,false,Rx,0,8,02,00,00,4D,5F,80,00,17,
427000,00000294,false,Rx,0,8,00,15,00,03,FA,C1,20,35,
427000,00000158,false,Rx,0,8,17,C9,06,C4,17,C9,98,36,
427000,00000188,false,Rx,0,6,04,04,80,08,00,69,00,00,
428000,0000018E,false,Rx,0,3,00,04,0D,00,00,00,00,00,
433000,00000097,false,Rx,0,8,80,A0,20,01,FA,00,00,28,
0,00000136,false,Rx,0,8,00,00,00,12,06,00,00,14,
0,0000013A,false,Rx,0,8,00,00,00,00,00,00,00,19,
434000,0000013F,false,Rx,0,8,01,34,01,24,FF,E2,00,17,
435000,0000017C,false,Rx,0,8,00,00,07,05,48,00,00,1B,
435000,0000015A,false,Rx,0,8,00,00,00,43,00,00,00,01,
436000,000001A4,false,Rx,0,8,00,68,00,00,00,00,00,0B,
436000,000001AA,false,Rx,0,8,7F,FF,00,00,00,00,68,01,
436000,000001B0,false,Rx,0,7,80,50,7F,FF,00,00,0B,00,
436000,000001D0,false,Rx,0,8,30,42,60,34,C2,19,84,79,
436000,00000156,false,Rx,0,6,FF,EF,00,00,07,0A,00,00,
436000,000001E7,false,Rx,0,4,1A,00,68,09,00,00,00,00,
0,00000158,false,Rx,0,8,17,BF,06,C0,17,BF,98,03,
0,00000039,false,Rx,0,2,00,0C,00,00,00,00,00,00,
0,00000188,false,Rx,0,6,04,04,80,08,00,78,00,00,
438000,0000018E,false,Rx,0,3,00,04,1C,00,00,00,00,00,
443000,00000097,false,Rx,0,8,80,60,20,01,F8,00,00,3D,
444000,00000136,false,Rx,0,8,00,00,00,12,06,00,00,23,
445000,0000013A,false,Rx,0,8,00,00,00,00,00,00,00,28,
445000,0000013F,false,Rx,0,8,01,34,01,24,00,00,00,24,
0,0000017C,false,Rx,0,8,00,00,07,05,48,00,00,2A,
0,000001DC,false,Rx,0,4,02,07,05,1F,00,00,00,00,
445000,0000015A,false,Rx,0,8,00,00,00,43,00,00,00,10,
446000,000001C0,false,Rx,0,7,00,00,10,00,00,00,28,00,
447000,00000156,false,Rx,0,6,FF,EF,00,00,07,19,00,00,
447000,000001A6,false,Rx,0,8,02,00,00,4D,5B,80,00,2A,
0,00000158,false,Rx,0,8,17,B5,06,BF,17,B5,98,18,
0,00000188,false,Rx,0,6,04,04,80,08,00,4B,00,00,
0,0000018E,false,Rx,0,3,00,06,29,00,00,00,00,00,
0,00000039,false,Rx,0,2,00,1B,00,00,00,00,00,00,
453000,00000097,false,Rx,0,8,80,60,20,01,F9,00,00,0F,
0,00000136,false,Rx,0,8,00,00,00,12,06,00,00,32,
0,0000013A,false,Rx,0,8,00,00,00,00,00,00,00,37,
0,0000013F,false,Rx,0,8,01,34,01,23,00,1E,00,35,
0,0000017C,false,Rx,0,8,00,00,07,08,48,00,00,36,
456000,0000015A,false,Rx,0,8,00,00,00,43,00,00,00,2F,
456000,000001A4,false,Rx,0,8,00,68,00,00,00,00,00,1A,
456000,000001AA,false,Rx,0,8,7F,FF,00,00,00,00,68,10,
0,000001B0,false,Rx,0,7,80,10,7F,FF,00,00,1E,00,
0,00000156,false,Rx,0,6,FF,EF,00,00,07,28,00,00,
458000,000001D0,false,Rx,0,8,30,48,60,5C,C2,71,84,3F,
0,000001E7,false,Rx,0,4,1A,00,68,18,00,00,00,00,
0,00000406,false,Rx,0,5,00,00,00,01,3A,00,00,00,
0,00000158,false,Rx,0,8,17,AB,06,BD,17,AB,98,2F,
0,00000188,false,Rx,0,6,04,04,80,08,00,5A,00,00,
459000,0000018E,false,Rx,0,3,00,02,3C,00,00,00,00,00,
460000,00000039,false,Rx,0,2,00,2A,00,00,00,00,00,00,
463000,00000097,false,Rx,0,8,80,60,10,01,F9,00,00,1F,
465000,00000136,false,Rx,0,8,00,00,00,12,06,00,00,05,
465000,0000013A,false,Rx,0,8,00,00,00,00,00,00,00,0A,
465000,0000013F,false,Rx,0,8,01,2F,01,23,00,0A,00,03,
465000,0000017C,false,Rx,0,8,00,00,07,09,48,00,00,08,
465000,000001DC,false,Rx,0,4,02,07,09,2A,00,00,00,00,
466000,0000015A,false,Rx,0,8,00,00,00,43,00,00,00,3E,
466000,000001C0,false,Rx,0,7,00,00,10,00,00,00,37,00,
0,00000421,false,Rx,0,5,00,00,00,01,00,00,00,00,
0,00000156,false,Rx,0,6,FF,EF,00,00,07,37,00,00,
466000,000001A6,false,Rx,0,8,02,00,00,4D,5D,80,00,37,
468000,00000294,false,Rx,0,8,00,15,00,03,FA,C1,20,08,
468000,00000309,false,Rx,0,8,18,E4,00,00,00,3F,00,78,
468000,00000158,false,Rx,0,8,17,A9,06,BC,17,A9,98,33,
468000,00000188,false,Rx,0,6,04,04,80,08,00,69,00,00,
0,00000377,false,Rx,0,8,18,06,7B,74,AE,00,A2,34,
0,00000374,false,Rx,0,7,00,00,00,00,00,00,37,00,
469000,0000018E,false,Rx,0,3,00,04,0D,00,00,00,00,00,
469000,00000378,false,Rx,0,8,08,31,06,13,40,60,00,33,
471000,00000039,false,Rx,0,2,00,39,00,00,00,00,00,00,
473000,00000097,false,Rx,0,8,80,20,10,01,FB,00,00,20,
474000,00000136,false,Rx,0,8,00,00,00,12,06,00,00,14,
475000,0000013A,false,Rx,0,8,00,00,00,00,00,00,00,19,
475000,0000013F,false,Rx,0,8,01,2B,01,23,00,00,00,10,
475000,0000017C,false,Rx,0,8,00,00,07,09,48,00,00,17,
476000,0000015A,false,Rx,0,8,00,00,00,43,00,00,00,01,
476000,000001A4,false,Rx,0,8,00,68,00,00,00,00,00,29,
476000,000001AA,false,Rx,0,8,7F,FF,00,00,00,00,68,2F,
476000,000001B0,false,Rx,0,7,80,10,7F,FF,00,00,2D,00,
0,00000156,false,Rx,0,6,FF,EF,00,00,07,0A,00,00,
0,000001D0,false,Rx,0,8,30,56,60,34,C1,E1,83,17,
0,000001E7,false,Rx,0,4,1A,00,68,27,00,00,00,00,
0,00000158,false,Rx,0,8,17,A9,06,BE,17,A9,98,04,
0,00000188,false,Rx,0,6,04,04,80,08,00,78,00,00,
479000,0000018E,false,Rx,0,3,00,07,19,00,00,00,00,00,
482000,00000039,false,Rx,0,2,00,0C,00,00,00,00,00,00,
483000,00000097,false,Rx,0,8,80,20,00,01,FD,00,00,3E,
0,00000136,false,Rx,0,8,00,00,00,12,06,00,00,23,
0,0000013A,false,Rx,0,8,00,00,00,00,00,00,00,28,
484000,0000013F,false,Rx,0,8,01,2A,01,23,00,14,00,2B,
484000,0000017C,false,Rx,0,8,00,00,07,0B,48,00,00,24,
485000,000001DC,false,Rx,0,4,02,07,0B,37,00,00,00,00,
485000,00000320,false,Rx,0,3,00,00,30,00,00,00,00,00,
485000,00000324,false,Rx,0,8,7C,46,23,73,46,FC,00,3B,
485000,0000037C,false,Rx,0,8,EA,00,EA,32,00,01,00,39,
0,0000015A,false,Rx,0,8,00,00,00,00,00,00,00,17,
0,000001C0,false,Rx,0,7,00,00,10,00,00,00,0A,00,
486000,00000400,false,Rx,0,5,00,00,00,00,13,00,00,00,
486000,0000040C,false,Rx,0,8,4C,00,00,00,00,00,00,17,
486000,00000156,false,Rx,0,6,FF,EE,00,01,07,19,00,00,
486000,000001A6,false,Rx,0,8,02,00,00,4D,67,80,00,0F,
487000,00000454,false,Rx,0,6,37,F5,02,29,90,16,00,00,
487000,00000465,false,Rx,0,7,FF,FF,FF,FF,FF,FF,14,00,
487000,00000158,false,Rx,0,8,17,B0,06,BF,17,B0,98,12,
487000,00000188,false,Rx,0,6,04,04,80,08,00,4B,00,00,
487000,000006C1,false,Rx,0,1,05,00,00,00,00,00,00,00,
488000,0000018E,false,Rx,0,3,00,01,2E,00,00,00,00,00,
0,00000097,false,Rx,0,8,7F,E0,00,01,FC,00,00,08,
0,00000039,false,Rx,0,2,00,1B,00,00,00,00,00,00,
494000,00000136,false,Rx,0,8,00,00,00,12,05,00,00,33,
494000,0000013A,false,Rx,0,8,00,00,00,00,00,00,00,37,
494000,0000013F,false,Rx,0,8,01,21,01,1F,00,00,00,3D,
494000,0000017C,false,Rx,0,8,00,00,07,0B,48,00,00,33,
495000,0000033D,false,Rx,0,4,01,40,00,00,00,00,00,00,
0,0000015A,false,Rx,0,8,00,00,00,00,00,00,00,26,
0,000001A4,false,Rx,0,8,00,69,00,00,00,00,00,37,
496000,000001AA,false,Rx,0,8,7F,FF,00,00,00,00,69,3D,
496000,000001B0,false,Rx,0,7,80,10,7F,FF,00,00,3C,00,
496000,000001D0,false,Rx,0,8,30,4C,60,68,C1,E1,83,C0,
0,00000156,false,Rx,0,6,FF,EF,00,00,07,28,00,00,
0,000001E7,false,Rx,0,4,1A,00,68,36,00,00,00,00,
0,00000158,false,Rx,0,8,17,B3,06,C0,17,B3,98,29,
0,00000188,false,Rx,0,6,04,04,80,08,00,5A,00,00,
0,00000305,false,Rx,0,2,0E,20,00,00,00,00,00,00,
499000,0000018E,false,Rx,0,3,00,01,3D,00,00,00,00,00,
503000,00000097,false,Rx,0,8,7F,DF,F0,01,FE,00,00,18,
504000,00000039,false,Rx,0,2,00,2A,00,00,00,00,00,00,
504000,00000136,false,Rx,0,8,00,00,00,12,05,00,00,06,
504000,0000013A,false,Rx,0,8,00,00,00,00,00,00,00,0A,
504000,0000013F,false,Rx,0,8,01,22,01,1F,FF,EC,00,07,
504000,0000017C,false,Rx,0,8,00,00,07,09,48,00,00,08,
505000,000001DC,false,Rx,0,4,02,07,09,0C,00,00,00,00,
506000,0000015A,false,Rx,0,8,00,00,00,00,00,00,00,35,
506000,000001C0,false,Rx,0,7,00,00,10,00,00,00,19,00,
506000,00000156,false,Rx,0,6,FF,EF,00,01,07,36,00,00,
506000,000001A6,false,Rx,0,8,02,00,00,4D,58,80,00,1E,
506000,00000294,false,Rx,0,8,00,15,00,03,FA,C1,20,17,
0,00000158,false,Rx,0,8,17,B6,06,C1,17,B6,98,31,
0,00000188,false,Rx,0,6,04,04,80,08,00,69,00,00,
509000,0000018E,false,Rx,0,3,00,00,01,00,00,00,00,00,
513000,00000097,false,Rx,0,8,7F,DF,F0,01,FD,00,00,28,
515000,00000136,false,Rx,0,8,00,00,00,12,05,00,00,15,
515000,0000013A,false,Rx,0,8,00,00,00,00,00,00,00,19,
0,0000013F,false,Rx,0,8,01,21,01,1E,00,1E,00,11,
0,00000039,false,Rx,0,2,00,39,00,00,00,00,00,00,
515000,0000017C,false,Rx,0,8,00,00,07,0C,48,00,00,14,
516000,0000015A,false,Rx,0,8,00,00,00,00,00,00,00,08,
516000,000001A4,false,Rx,0,8,00,68,00,00,00,00,00,0B,
516000,000001AA,false,Rx,0,8,7F,FF,00,00,00,00,68,01,
516000,000001B0,false,Rx,0,7,80,10,7F,FF,00,00,0F,00,
517000,00000156,false,Rx,0,6,FF,EF,00,00,07,0A,00,00,
517000,000001D0,false,Rx,0,8,30,2E,60,70,C1,A9,85,2B,
517000,000001E7,false,Rx,0,4,1A,00,68,09,00,00,00,00,
517000,0000030C,false,Rx,0,8,18,BF,26,46,01,60,90,22,
0,00000158,false,Rx,0,8,17,B8,06,C2,17,B8,98,0F,
0,00000188,false,Rx,0,6,04,04,80,08,00,78,00,00,
519000,0000018E,false,Rx,0,3,00,00,10,00,00,00,00,00,
522000,00000097,false,Rx,0,8,7F,DF,F0,01,FC,00,00,38,
0,00000136,false,Rx,0,8,00,00,00,12,05,00,00,24,
0,0000013A,false,Rx,0,8,00,00,00,00,00,00,00,28,
525000,0000013F,false,Rx,0,8,01,21,01,1F,00,00,00,2E,
525000,0000017C,false,Rx,0,8,00,00,07,0C,48,00,00,23,
525000,000001DC,false,Rx,0,4,02,07,0C,18,00,00,00,00,
0,00000039,false,Rx,0,2,00,0C,00,00,00,00,00,00,
0,0000015A,false,Rx,0,8,00,00,00,00,00,00,00,17,
0,000001C0,false,Rx,0,7,00,00,10,00,00,00,28,00,
527000,00000156,false,Rx,0,6,FF,EF,00,00,07,19,00,00,
527000,000001A6,false,Rx,0,8,02,00,00,4C,57,80,00,2F,
0,00000158,false,Rx,0,8,17,B7,06,C0,17,B7,98,12,
0,00000188,false,Rx,0,6,04,04,80,08,00,4B,00,00,
528000,0000018E,false,Rx,0,3,00,03,2C,00,00,00,00,00,
533000,00000097,false,Rx,0,8,7F,E0,00,01,FB,00,00,09,
0,00000136,false,Rx,0,8,00,00,00,12,05,00,00,33,
0,0000013A,false,Rx,0,8,00,00,00,00,00,00,00,37,
0,0000013F,false,Rx,0,8,01,21,01,1E,00,00,00,3E,
534000,0000017C,false,Rx,0,8,00,00,07,0C,48,00,00,32,
0,0000015A,false,Rx,0,8,00,00,00,00,00,00,00,26,
0,000001A4,false,Rx,0,8,00,68,00,00,00,00,00,1A,
0,000001AA,false,Rx,0,8,7F,FF,00,00,00,00,68,10,
0,000001B0,false,Rx,0,7,80,10,7F,FF,00,00,1E,00,
0,00000039,false,Rx,0,2,00,1B,00,00,00,00,00,00,
0,00000156,false,Rx,0,6,FF,EF,00,00,07,28,00,00,
0,000001D0,false,Rx,0,8,30,16,60,68,C1,D1,84,9C,
0,000001E7,false,Rx,0,4,1A,00,68,18,00,00,00,00,
537000,00000158,false,Rx,0,8,17,B5,06,BE,17,B5,98,28,
537000,00000188,false,Rx,0,6,04,04,80,08,00,5A,00,00,
539000,0000018E,false,Rx,0,3,00,01,3D,00,00,00,00,00,
543000,00000097,false,Rx,0,8,7F,DF,F0,01,FC,00,00,1A,
0,00000136,false,Rx,0,8,00,00,00,12,05,00,00,06,
0,0000013A,false,Rx,0,8,00,00,00,00,00,00,00,0A,
0,0000013F,false,Rx,0,8,01,21,01,1F,00,00,00,00,
0,0000017C,false,Rx,0,8,00,00,07,0C,48,00,00,05,
0,000001DC,false,Rx,0,4,02,07,0C,27,00,00,00,00,
546000,0000015A,false,Rx,0,8,00,00,00,00,00,00,00,35,
546000,000001C0,false,Rx,0,7,00,00,10,00,00,00,37,00,
546000,00000156,false,Rx,0,6,FF,EF,00,00,07,37,00,00,
547000,000001A6,false,Rx,0,8,02,00,00,4C,56,80,00,3F,
0,00000294,false,Rx,0,8,00,15,00,03,FA,C1,20,26,
0,00000158,false,Rx,0,8,17,B2,06,BE,17,B2,98,3D,
547000,00000039,false,Rx,0,2,00,2A,00,00,00,00,00,00,
547000,00000188,false,Rx,0,6,04,04,80,08,00,69,00,00,
549000,0000018E,false,Rx,0,3,00,02,0F,00,00,00,00,00,
552000,00000097,false,Rx,0,8,7F,DF,F0,01,FC,00,00,29,
554000,00000136,false,Rx,0,8,00,00,00,12,05,00,00,15,
554000,0000013A,false,Rx,0,8,00,00,00,00,00,00,00,19,
554000,0000013F,false,Rx,0,8,01,21,01,1E,00,14,00,1B,
554000,0000017C,false,Rx,0,8,00,00,07,0E,48,00,00,12,
0,0000015A,false,Rx,0,8,00,00,00,00,00,00,00,08,
0,000001A4,false,Rx,0,8,00,68,00,00,00,00,00,29,
0,000001AA,false,Rx,0,8,7F,FF,00,00,00,00,68,2F,
0,000001B0,false,Rx,0,7,80,10,7F,FF,00,00,2D,00,
0,000001D0,false,Rx,0,8,30,20,60,54,C1,99,83,39,
0,00000156,false,Rx,0,6,FF,EF,00,00,07,0A,00,00,
556000,000001E7,false,Rx,0,4,1A,00,68,27,00,00,00,00,
0,00000158,false,Rx,0,8,17,AC,06,BC,17,AC,98,00,
0,00000188,false,Rx,0,6,04,04,80,08,00,78,00,00,
558000,0000018E,false,Rx,0,3,00,00,10,00,00,00,00,00,
558000,00000039,false,Rx,0,2,00,39,00,00,00,00,00,00,
563000,00000097,false,Rx,0,8,7F,DF,F0,01,FE,00,00,36,
0,00000136,false,Rx,0,8,00,00,00,12,05,00,00,24,
0,0000013A,false,Rx,0,8,00,00,00,00,00,00,00,28,
564000,0000013F,false,Rx,0,8,01,21,01,1F,FF,E2,00,20,
564000,0000017C,false,Rx,0,8,00,00,07,0B,48,00,00,24,
565000,000001DC,false,Rx,0,4,02,07,0B,37,00,00,00,00,
566000,0000015A,false,Rx,0,8,00,00,00,00,00,00,00,17,
566000,000001C0,false,Rx,0,7,00,00,10,00,00,00,0A,00,
566000,00000156,false,Rx,0,6,FF,EF,00,00,07,19,00,00,
567000,000001A6,false,Rx,0,8,02,00,00,4C,56,80,00,02,
0,00000309,false,Rx,0,8,18,E1,00,00,00,3F,00,4E,
0,00000374,false,Rx,0,7,00,00,00,00,00,00,0A,00,
0,00000158,false,Rx,0,8,17,A6,06,BB,17,A6,98,1C,
568000,00000188,false,Rx,0,6,04,04,80,08,00,4B,00,00,
568000,00000378,false,Rx,0,8,08,31,06,13,40,60,00,06,
568000,00000377,false,Rx,0,8,18,06,7B,74,AE,00,A2,07,
568000,0000018E,false,Rx,0,3,00,00,2F,00,00,00,00,00,
568000,00000405,false,Rx,0,8,00,00,00,00,00,00,00,2D,
569000,00000428,false,Rx,0,7,00,00,00,00,00,00,28,00,
569000,00000039,false,Rx,0,2,00,0C,00,00,00,00,00,00,
572000,00000097,false,Rx,0,8,7F,DF,F0,02,00,00,00,05,
0,00000136,false,Rx,0,8,00,00,00,12,05,00,00,33,
0,0000013A,false,Rx,0,8,00,00,00,00,00,00,00,37,
574000,0000013F,false,Rx,0,8,01,21,01,1F,00,00,00,3D,
575000,0000017C,false,Rx,0,8,00,00,07,0B,48,00,00,33,
575000,0000015A,false,Rx,0,8,00,00,00,00,00,00,00,26,
576000,000001A4,false,Rx,0,8,00,68,00,00,00,00,00,38,
576000,000001AA,false,Rx,0,8,7F,FF,00,00,00,00,68,3E,
576000,000001B0,false,Rx,0,7,80,10,7F,FF,00,00,3C,00,
576000,00000156,false,Rx,0,6,FF,EF,00,00,07,28,00,00,
577000,000001D0,false,Rx,0,8,30,24,60,5C,C1,E1,83,5E,
577000,000001E7,false,Rx,0,4,1A,00,68,36,00,00,00,00,
0,00000158,false,Rx,0,8,17,A7,06,BB,17,A7,98,29,
0,00000188,false,Rx,0,6,04,04,80,08,00,5A,00,00,
578000,0000018E,false,Rx,0,3,00,03,3B,00,00,00,00,00,
581000,00000039,false,Rx,0,2,00,1B,00,00,00,00,00,00,
582000,00000097,false,Rx,0,8,7F,DF,F0,02,02,00,00,12,
0,00000136,false,Rx,0,8,00,00,00,12,05,00,00,06,
0,0000013A,false,Rx,0,8,00,00,00,00,00,00,00,0A,
584000,0000013F,false,Rx,0,8,01,21,01,1F,00,14,00,0B,
0,0000017C,false,Rx,0,8,00,00,07,0D,48,00,00,04,
0,000001DC,false,Rx,0,4,02,07,0D,08,00,00,00,00,
585000,00000320,false,Rx,0,3,00,00,03,00,00,00,00,00,
0,00000324,false,Rx,0,8,7C,46,23,74,46,15,00,02,
0,0000037C,false,Rx,0,8,D7,00,D7,32,00,01,00,04,
586000,0000015A,false,Rx,0,8,00,09,00,00,00,00,00,3C,
586000,000001C0,false,Rx,0,7,00,00,10,00,00,00,19,00,
0,000003D7,false,Rx,0,8,B0,C1,04,00,00,00,00,05,
0,00000156,false,Rx,0,6,FF,EF,00,00,07,37,00,00,
586000,000001A6,false,Rx,0,8,02,00,00,4C,59,80,00,1E,
0,00000294,false,Rx,0,8,00,15,00,03,FA,C1,20,35,
0,00000158,false,Rx,0,8,17,A9,06,C0,17,A9,98,3E,
0,00000188,false,Rx,0,6,04,04,80,08,00,69,00,00,
588000,0000018E,false,Rx,0,3,00,03,0E,00,00,00,00,00,
592000,00000039,false,Rx,0,2,00,2A,00,00,00,00,00,00,
593000,00000097,false,Rx,0,8,7F,DF,F0,02,04,00,00,2F,
594000,00000136,false,Rx,0,8,00,00,00,12,05,00,00,15,
594000,0000013A,false,Rx,0,8,00,00,00,00,00,00,00,19,
594000,0000013F,false,Rx,0,8,01,18,01,1A,00,00,00,1E,
595000,0000017C,false,Rx,0,8,00,00,07,0D,48,00,00,13,
595000,0000033D,false,Rx,0,4,01,40,00,1F,00,00,00,00,
596000,0000015A,false,Rx,0,8,00,07,00,00,00,00,00,01,
596000,000001A4,false,Rx,0,8,00,68,00,00,00,00,00,0B,
596000,000001AA,false,Rx,0,8,7F,FF,00,00,00,00,68,01,
596000,000001B0,false,Rx,0,7,80,10,7F,FF,00,00,0F,00,
596000,00000156,false,Rx,0,6,FF,EE,00,01,07,0A,00,00,
0,000001D0,false,Rx,0,8,30,3E,60,48,C1,89,82,1B,
0,000001E7,false,Rx,0,4,1A,00,68,09,00,00,00,00,
0,00000158,false,Rx,0,8,17,AD,06,BF,17,AD,98,0B,
0,00000188,false,Rx,0,6,04,04,80,08,00,78,00,00,
599000,0000018E,false,Rx,0,3,00,03,1D,00,00,00,00,00,
0,00000097,false,Rx,0,8,7F,DF,F0,02,07,00,00,3B,
0,00000039,false,Rx,0,2,00,39,00,00,00,00,00,00,
602000,00000305,false,Rx,0,2,0E,3F,00,00,00,00,00,00,
604000,00000136,false,Rx,0,8,00,00,00,12,05,00,00,24,
605000,0000013A,false,Rx,0,8,00,00,00,00,00,00,00,28,
605000,0000013F,false,Rx,0,8,01,18,01,1A,FF,F6,00,2A,
605000,0000017C,false,Rx,0,8,00,00,07,0C,48,00,00,23,
605000,000001DC,false,Rx,0,4,02,07,0C,18,00,00,00,00,
0,0000015A,false,Rx,0,8,00,06,00,00,00,00,00,11,
0,000001C0,false,Rx,0,7,00,00,10,00,00,00,28,00,
607000,00000156,false,Rx,0,6,FF,EF,00,01,07,18,00,00,
607000,000001A6,false,Rx,0,8,02,00,00,4C,60,80,00,25,
607000,00000158,false,Rx,0,8,17,A6,06,BA,17,A6,98,1D,
608000,00000188,false,Rx,0,6,04,04,80,08,00,4B,00,00,
608000,0000018E,false,Rx,0,3,00,00,2F,00,00,00,00,00,
613000,00000097,false,Rx,0,8,7F,DF,F0,02,06,00,00,0F,
613000,00000039,false,Rx,0,2,00,0C,00,00,00,00,00,00,
0,00000136,false,Rx,0,8,00,00,00,12,05,00,00,33,
0,0000013A,false,Rx,0,8,00,00,00,00,00,00,00,37,
614000,0000013F,false,Rx,0,8,01,18,01,1A,00,0A,00,32,
614000,0000017C,false,Rx,0,8,00,00,07,0D,48,00,00,31,
616000,0000015A,false,Rx,0,8,00,04,FF,BD,00,00,00,2C,
616000,000001A4,false,Rx,0,8,00,68,00,00,00,00,00,1A,
617000,000001AA,false,Rx,0,8,7F,FF,00,00,00,00,68,10,
617000,000001B0,false,Rx,0,7,80,10,7F,FF,00,00,1E,00,
617000,00000156,false,Rx,0,6,FF,EF,00,00,07,28,00,00,
617000,000001D0,false,Rx,0,8,30,38,5F,D4,C1,41,81,84,
617000,000001E7,false,Rx,0,4,1A,00,68,18,00,00,00,00,
618000,0000030C,false,Rx,0,8,18,BF,24,46,01,60,90,33,
618000,00000158,false,Rx,0,8,17,A5,06,BB,17,A5,98,2D,
618000,00000188,false,Rx,0,6,04,04,80,08,00,5A,00,00,
619000,0000018E,false,Rx,0,3,00,00,3E,00,00,00,00,00,
624000,00000097,false,Rx,0,8,7F,DF,F0,02,01,00,00,13,
624000,00000136,false,Rx,0,8,00,00,00,12,05,00,00,06,
625000,0000013A,false,Rx,0,8,00,00,00,00,00,00,00,0A,
625000,0000013F,false,Rx,0,8,01,18,01,1A,00,00,00,0F,
625000,00000039,false,Rx,0,2,00,1B,00,00,00,00,00,00,
625000,0000017C,false,Rx,0,8,00,00,07,0D,48,00,00,04,
625000,000001DC,false,Rx,0,4,02,07,0D,26,00,00,00,00,
0,0000015A,false,Rx,0,8,00,05,FF,BD,00,00,00,3A,
0,000001C0,false,Rx,0,7,00,00,10,00,00,00,37,00,
627000,00000156,false,Rx,0,6,FF,EF,00,00,07,37,00,00,
627000,000001A6,false,Rx,0,8,02,00,00,4E,5D,80,00,36,
628000,00000294,false,Rx,0,8,00,15,00,03,FA,C1,20,08,
0,00000158,false,Rx,0,8,17,A4,06,BE,17,A4,98,3B,
0,00000188,false,Rx,0,6,04,04,80,08,00,69,00,00,
629000,0000018E,false,Rx,0,3,00,05,0C,00,00,00,00,00,
633000,00000097,false,Rx,0,8,7F,DF,F0,01,FD,00,00,28,
0,00000136,false,Rx,0,8,00,00,00,12,05,00,00,15,
0,0000013A,false,Rx,0,8,00,00,00,00,00,00,00,19,
635000,0000013F,false,Rx,0,8,01,19,01,1B,FF,E2,00,1E,
635000,0000017C,false,Rx,0,8,00,00,07,0A,48,00,00,16,
635000,00000039,false,Rx,0,2,00,2A,00,00,00,00,00,00,
636000,0000015A,false,Rx,0,8,00,03,FF,BD,00,00,00,0F,
636000,000001A4,false,Rx,0,8,00,68,00,00,00,00,00,29,
636000,000001AA,false,Rx,0,8,7F,FF,00,00,00,00,68,2F,
0,000001B0,false,Rx,0,7,80,10,7F,FF,00,00,2D,00,
0,00000156,false,Rx,0,6,FF,EF,00,01,07,09,00,00,
637000,000001D0,false,Rx,0,8,30,34,60,34,C1,61,83,5F,
637000,000001E7,false,Rx,0,4,1A,00,68,27,00,00,00,00,
0,00000158,false,Rx,0,8,17,A5,06,BC,17,A5,98,0E,
0,00000188,false,Rx,0,6,04,04,80,08,00,78,00,00,
638000,0000018E,false,Rx,0,3,00,04,1C,00,00,00,00,00,
642000,00000097,false,Rx,0,8,7F,DF,F0,01,F8,00,00,3C,
644000,00000136,false,Rx,0,8,00,00,00,12,05,00,00,24,
644000,0000013A,false,Rx,0,8,00,00,00,00,00,00,00,28,
644000,0000013F,false,Rx,0,8,01,19,01,1B,00,00,00,2B,
645000,0000017C,false,Rx,0,8,00,00,07,0A,48,00,00,25,
645000,000001DC,false,Rx,0,4,02,07,0A,38,00,00,00,00,
646000,0000015A,false,Rx,0,8,00,03,FF,BD,00,00,00,1E,
646000,000001C0,false,Rx,0,7,00,00,10,00,00,00,0A,00,
646000,00000039,false,Rx,0,2,00,39,00,00,00,00,00,00,
646000,00000156,false,Rx,0,6,FF,EF,00,01,07,18,00,00,
646000,000001A6,false,Rx,0,8,02,00,00,4E,5E,80,00,08,
648000,00000158,false,Rx,0,8,17,A8,06,BB,17,A8,98,18,
648000,00000188,false,Rx,0,6,04,04,80,08,00,4B,00,00,
648000,0000018E,false,Rx,0,3,00,07,28,00,00,00,00,00,
653000,00000097,false,Rx,0,8,7F,DF,F0,01,F6,00,00,01,
0,00000136,false,Rx,0,8,00,00,00,12,05,00,00,33,
0,0000013A,false,Rx,0,8,00,00,00,00,00,00,00,37,
654000,0000013F,false,Rx,0,8,01,19,01,1B,00,00,00,3A,
655000,0000017C,false,Rx,0,8,00,00,07,0A,48,00,00,34,
656000,0000015A,false,Rx,0,8,00,03,FF,BD,00,00,00,2D,
656000,000001A4,false,Rx,0,8,00,68,00,00,00,00,00,38,
656000,000001AA,false,Rx,0,8,7F,FF,00,00,00,00,68,3E,
656000,000001B0,false,Rx,0,7,80,10,7F,FF,00,00,3C,00,
656000,000001D0,false,Rx,0,8,30,2A,60,BC,C1,B9,82,8B,
657000,00000156,false,Rx,0,6,FF,EF,00,00,07,28,00,00,
657000,000001E7,false,Rx,0,4,1A,00,68,36,00,00,00,00,
0,00000158,false,Rx,0,8,17,A7,06,BD,17,A7,98,27,
0,00000039,false,Rx,0,2,00,0C,00,00,00,00,00,00,
658000,00000188,false,Rx,0,6,04,04,80,08,00,5A,00,00,
658000,0000018E,false,Rx,0,3,00,03,3B,00,00,00,00,00,
663000,00000097,false,Rx,0,8,7F,E0,00,01,F8,00,00,1B,
665000,00000136,false,Rx,0,8,00,00,00,12,05,00,00,06,
665000,0000013A,false,Rx,0,8,00,00,00,00,00,00,00,0A,
665000,0000013F,false,Rx,0,8,01,19,01,1B,FF,EC,00,05,
665000,0000017C,false,Rx,0,8,00,00,07,08,48,00,00,09,
665000,000001DC,false,Rx,0,4,02,07,08,0D,00,00,00,00,
666000,0000015A,false,Rx,0,8,00,00,FF,BD,00,00,00,3F,
666000,000001C0,false,Rx,0,7,00,00,10,00,00,00,19,00,
667000,00000156,false,Rx,0,6,FF,EF,00,00,07,37,00,00,
667000,000001A6,false,Rx,0,8,02,00,00,4E,63,80,00,11,
668000,00000294,false,Rx,0,8,00,15,00,03,FA,C1,20,17,
668000,00000309,false,Rx,0,8,18,D6,00,00,00,3F,00,59,
668000,00000158,false,Rx,0,8,17,A6,06,BE,17,A6,98,37,
668000,00000188,false,Rx,0,6,04,04,80,08,00,69,00,00,
669000,00000377,false,Rx,0,8,18,06,7B,74,AE,00,A2,16,
669000,00000374,false,Rx,0,7,00,00,00,00,00,00,19,00,
0,0000018E,false,Rx,0,3,00,04,0D,00,00,00,00,00,
0,00000039,false,Rx,0,2,00,1B,00,00,00,00,00,00,
669000,00000378,false,Rx,0,8,08,31,06,13,40,60,00,15,
673000,00000097,false,Rx,0,8,80,20,00,01,FC,00,00,20,
675000,00000136,false,Rx,0,8,00,00,00,12,05,00,00,15,
675000,0000013A,false,Rx,0,8,00,00,00,00,00,00,00,19,
675000,0000013F,false,Rx,0,8,01,19,01,1B,00,00,00,1C,
675000,0000017C,false,Rx,0,8,00,00,07,08,48,00,00,18,
0,0000015A,false,Rx,0,8,00,00,FF,BD,00,00,00,02,
0,000001A4,false,Rx,0,8,00,68,00,00,00,00,00,0B,
0,000001AA,false,Rx,0,8,7F,FF,00,00,00,00,68,01,
0,000001B0,false,Rx,0,7,80,10,7F,FF,00,00,0F,00,
677000,00000156,false,Rx,0,6,FF,EF,00,00,07,0A,00,00,
677000,000001D0,false,Rx,0,8,30,2E,60,C0,C1,41,81,82,
677000,000001E7,false,Rx,0,4,1A,00,68,09,00,00,00,00,
0,00000158,false,Rx,0,8,17,A9,06,BE,17,A9,98,04,
0,00000188,false,Rx,0,6,04,04,80,08,00,78,00,00,
678000,0000018E,false,Rx,0,3,00,02,1E,00,00,00,00,00,
680000,00000039,false,Rx,0,2,00,2A,00,00,00,00,00,00,
683000,00000097,false,Rx,0,8,80,20,00,01,FF,00,00,3C,
0,00000136,false,Rx,0,8,00,00,00,12,05,00,00,24,
0,0000013A,false,Rx,0,8,00,00,00,00,00,00,00,28,
0,0000013F,false,Rx,0,8,01,19,01,1B,00,0A,00,21,
0,0000017C,false,Rx,0,8,00,00,07,09,48,00,00,26,
684000,000001DC,false,Rx,0,4,02,07,09,1B,00,00,00,00,
686000,00000320,false,Rx,0,3,00,00,12,00,00,00,00,00,
686000,00000324,false,Rx,0,8,7C,46,23,74,46,10,00,16,
686000,0000037C,false,Rx,0,8,DA,00,DA,32,00,01,00,1D,
686000,0000015A,false,Rx,0,8,00,00,FF,BD,00,00,00,11,
686000,000001C0,false,Rx,0,7,00,00,10,00,00,00,28,00,
687000,00000156,false,Rx,0,6,FF,EF,00,00,07,19,00,00,
687000,000001A6,false,Rx,0,8,02,00,00,4E,6E,80,00,25,
0,00000158,false,Rx,0,8,17,B2,06,C0,17,B2,98,1C,
0,00000188,false,Rx,0,6,04,04,80,08,00,4B,00,00,
688000,0000018E,false,Rx,0,3,00,00,2F,00,00,00,00,00,
691000,00000039,false,Rx,0,2,00,39,00,00,00,00,00,00,
692000,00000097,false,Rx,0,8,80,20,00,01,FD,00,00,01,
694000,00000136,false,Rx,0,8,00,00,00,12,05,00,00,33,
694000,0000013A,false,Rx,0,8,00,00,00,00,00,00,00,37,
695000,0000013F,false,Rx,0,8,01,19,01,1D,00,00,00,38,
695000,0000017C,false,Rx,0,8,00,00,07,09,48,00,00,35,
695000,0000033D,false,Rx,0,4,01,40,00,2E,00,00,00,00,
696000,0000015A,false,Rx,0,8,00,00,FF,BD,00,00,00,20,
696000,000001A4,false,Rx,0,8,00,68,00,00,00,00,00,1A,
696000,000001AA,false,Rx,0,8,7F,FF,00,00,00,00,68,10,
696000,000001B0,false,Rx,0,7,80,10,7F,FF,00,00,1E,00,
696000,00000156,false,Rx,0,6,FF,EF,00,00,07,28,00,00,
696000,000001D0,false,Rx,0,8,30,4C,60,7C,C2,01,81,F7,
697000,000001E7,false,Rx,0,4,1A,00,68,18,00,00,00,00,
0,00000158,false,Rx,0,8,17,B6,06,C1,17,B6,98,22,
0,00000188,false,Rx,0,6,04,04,80,08,00,5A,00,00,
699000,0000018E,false,Rx,0,3,00,03,3B,00,00,00,00,00,
702000,00000039,false,Rx,0,2,00,0C,00,00,00,00,00,00,
702000,00000097,false,Rx,0,8,80,20,10,01,FC,00,00,10,
0,00000136,false,Rx,0,8,00,00,00,12,05,00,00,06,
0,0000013A,false,Rx,0,8,00,00,00,00,00,00,00,0A,
704000,0000013F,false,Rx,0,8,01,1A,01,1E,FF,D8,00,06,
704000,0000017C,false,Rx,0,8,00,00,07,05,48,00,00,0C,
705000,000001DC,false,Rx,0,4,02,07,05,2E,00,00,00,00,
0,0000015A,false,Rx,0,8,00,00,FF,BD,00,00,00,3F,
0,000001C0,false,Rx,0,7,00,00,10,00,00,00,37,00,
706000,00000156,false,Rx,0,6,FF,EF,00,01,07,36,00,00,
706000,000001A6,false,Rx,0,8,02,00,00,4E,67,80,00,3B,
708000,00000294,false,Rx,0,8,00,15,00,03,FA,C1,20,26,
708000,00000305,false,Rx,0,2,0E,02,00,00,00,00,00,00,
708000,00000158,false,Rx,0,8,17,B7,06,C0,17,B7,98,30,
708000,00000188,false,Rx,0,6,04,04,80,08,00,69,00,00,
708000,0000018E,false,Rx,0,3,00,04,0D,00,00,00,00,00,
0,00000097,false,Rx,0,8,80,60,10,01,FD,00,00,2A,
0,00000039,false,Rx,0,2,00,1B,00,00,00,00,00,00,
0,00000136,false,Rx,0,8,00,00,00,12,05,00,00,15,
0,0000013A,false,Rx,0,8,00,00,00,00,00,00,00,19,
715000,0000013F,false,Rx,0,8,01,19,01,1D,00,28,00,10,
715000,0000017C,false,Rx,0,8,00,00,07,09,48,00,00,17,
0,0000015A,false,Rx,0,8,00,00,FF,BD,00,00,00,02,
0,000001A4,false,Rx,0,8,00,68,00,00,00,00,00,29,
716000,000001AA,false,Rx,0,8,7F,FF,00,00,00,00,68,2F,
716000,000001B0,false,Rx,0,7,80,10,7F,FF,00,00,2D,00,
717000,000001D0,false,Rx,0,8,30,48,60,40,C1,E1,81,FD,
717000,00000156,false,Rx,0,6,FF,EF,00,01,07,09,00,00,
717000,000001E7,false,Rx,0,4,1A,00,68,27,00,00,00,00,
717000,0000030C,false,Rx,0,8,18,BE,24,46,01,60,90,07,
0,00000158,false,Rx,0,8,17,B2,06,BE,17,B2,98,00,
0,00000188,false,Rx,0,6,04,04,80,08,00,78,00,00,
718000,0000018E,false,Rx,0,3,00,00,10,00,00,00,00,00,
723000,00000097,false,Rx,0,8,80,60,20,02,00,00,00,33,
724000,00000039,false,Rx,0,2,00,2A,00,00,00,00,00,00,
0,00000136,false,Rx,0,8,00,00,00,12,05,00,00,24,
0,0000013A,false,Rx,0,8,00,00,00,00,00,00,00,28,
725000,0000013F,false,Rx,0,8,01,19,01,1E,00,00,00,28,
725000,0000017C,false,Rx,0,8,00,00,07,09,48,00,00,26,
725000,000001DC,false,Rx,0,4,02,07,09,39,00,00,00,00,
726000,0000015A,false,Rx,0,8,00,00,FF,BD,00,00,00,11,
726000,000001C0,false,Rx,0,7,00,00,10,00,00,00,0A,00,
727000,00000156,false,Rx,0,6,FF,EF,00,00,07,19,00,00,
727000,000001A6,false,Rx,0,8,02,00,00,46,6B,80,00,02,
728000,00000158,false,Rx,0,8,17,AC,06,BC,17,AC,98,1F,
728000,00000188,false,Rx,0,6,04,04,80,08,00,4B,00,00,
728000,0000018E,false,Rx,0,3,00,01,2E,00,00,00,00,00,
732000,00000097,false,Rx,0,8,80,A0,20,02,03,00,00,0F,
0,00000136,false,Rx,0,8,00,00,00,12,05,00,00,33,
0,0000013A,false,Rx,0,8,00,00,00,00,00,00,00,37,
734000,0000013F,false,Rx,0,8,01,19,01,1D,00,00,00,38,
734000,00000039,false,Rx,0,2,00,39,00,00,00,00,00,00,
734000,0000017C,false,Rx,0,8,00,00,07,09,48,00,00,35,
736000,0000015A,false,Rx,0,8,00,56,FF,BD,00,00,00,25,
736000,000001A4,false,Rx,0,8,00,69,00,00,00,00,00,37,
736000,000001AA,false,Rx,0,8,7F,FF,00,00,00,00,69,3D,
736000,000001B0,false,Rx,0,7,80,10,7F,FF,00,00,3C,00,
736000,000001D0,false,Rx,0,8,30,56,60,70,C1,41,82,E5,
736000,00000156,false,Rx,0,6,FF,EF,00,00,07,28,00,00,
737000,000001E7,false,Rx,0,4,1A,00,68,36,00,00,00,00,
0,00000158,false,Rx,0,8,17,A9,06,BD,17,A9,98,23,
0,00000188,false,Rx,0,6,04,04,80,08,00,5A,00,00,
739000,0000018E,false,Rx,0,3,00,02,3C,00,00,00,00,00,
743000,00000097,false,Rx,0,8,80,A0,20,02,08,00,00,19,
744000,00000136,false,Rx,0,8,00,00,00,12,05,00,00,06,
744000,0000013A,false,Rx,0,8,00,00,00,00,00,00,00,0A,
745000,0000013F,false,Rx,0,8,01,19,01,1E,00,00,00,0A,
745000,0000017C,false,Rx,0,8,00,00,07,09,48,00,00,08,
745000,000001DC,false,Rx,0,4,02,07,09,0C,00,00,00,00,
0,00000039,false,Rx,0,2,00,0C,00,00,00,00,00,00,
0,0000015A,false,Rx,0,8,00,00,FF,BD,00,00,00,3F,
746000,000001C0,false,Rx,0,7,00,00,10,00,00,00,19,00,
746000,00000156,false,Rx,0,6,FF,EF,00,00,07,37,00,00,
747000,000001A6,false,Rx,0,8,02,00,00,46,6B,80,00,11,
747000,00000294,false,Rx,0,8,00,15,00,03,FA,C1,20,35,
0,00000158,false,Rx,0,8,17,AC,06,C0,17,AC,98,38,
0,00000188,false,Rx,0,6,04,04,80,08,00,69,00,00,
748000,0000018E,false,Rx,0,3,00,03,0E,00,00,00,00,00,
752000,00000097,false,Rx,0,8,80,A0,30,02,08,00,00,27,
755000,00000136,false,Rx,0,8,00,00,00,12,05,00,00,15,
755000,0000013A,false,Rx,0,8,00,00,00,00,00,00,00,19,
755000,0000013F,false,Rx,0,8,01,19,01,1D,00,0A,00,10,
755000,0000017C,false,Rx,0,8,00,00,07,0A,48,00,00,16,
0,0000015A,false,Rx,0,8,00,00,00,00,00,00,00,08,
0,000001A4,false,Rx,0,8,00,69,00,00,00,00,00,0A,
757000,000001AA,false,Rx,0,8,7F,FF,00,00,00,00,69,00,
757000,000001B0,false,Rx,0,7,80,50,7F,FF,00,00,0B,00,
757000,00000156,false,Rx,0,6,FF,EF,00,00,07,0A,00,00,
757000,00000039,false,Rx,0,2,00,1B,00,00,00,00,00,00,
757000,000001D0,false,Rx,0,8,30,66,60,CC,C1,71,86,91,
757000,000001E7,false,Rx,0,4,1A,00,68,09,00,00,00,00,
757000,00000406,false,Rx,0,5,00,00,00,01,0D,00,00,00,
0,00000158,false,Rx,0,8,17,B6,06,C3,17,B6,98,02,
0,00000188,false,Rx,0,6,04,04,80,08,00,78,00,00,
759000,0000018E,false,Rx,0,3,00,06,1A,00,00,00,00,00,
763000,00000097,false,Rx,0,8,80,A0,30,02,05,00,00,39,
765000,00000136,false,Rx,0,8,00,00,00,12,05,00,00,24,
765000,0000013A,false,Rx,0,8,00,00,00,00,00,00,00,28,
765000,0000013F,false,Rx,0,8,01,19,01,1D,FF,F6,00,26,
765000,0000017C,false,Rx,0,8,00,00,07,09,48,00,00,26,
765000,000001DC,false,Rx,0,4,02,07,09,1B,00,00,00,00,
766000,0000015A,false,Rx,0,8,00,00,00,00,00,00,00,17,
766000,000001C0,false,Rx,0,7,00,00,10,00,00,00,28,00,
766000,00000421,false,Rx,0,5,00,00,00,01,1F,00,00,00,
767000,00000156,false,Rx,0,6,FF,EF,00,00,07,19,00,00,
0,000001A6,false,Rx,0,8,02,00,00,46,6A,80,00,21,
0,00000309,false,Rx,0,8,18,DB,00,00,00,3F,00,63,
768000,00000158,false,Rx,0,8,17,BE,06,C5,17,BE,98,1F,
768000,00000039,false,Rx,0,2,00,2A,00,00,00,00,00,00,
768000,00000188,false,Rx,0,6,04,04,80,08,00,4B,00,00,
768000,00000374,false,Rx,0,7,00,00,00,00,00,00,28,00,
769000,00000377,false,Rx,0,8,18,06,7B,74,AE,00,A2,25,
769000,0000018E,false,Rx,0,3,00,08,27,00,00,00,00,00,
769000,00000378,false,Rx,0,8,08,31,06,13,40,60,00,24,
772000,00000097,false,Rx,0,8,80,A0,30,02,00,00,00,01,
774000,00000136,false,Rx,0,8,00,00,00,12,05,00,00,33,
774000,0000013A,false,Rx,0,8,00,00,00,00,00,00,00,37,
774000,0000013F,false,Rx,0,8,01,19,01,1E,00,00,00,37,
774000,0000017C,false,Rx,0,8,00,00,07,09,48,00,00,35,
775000,0000015A,false,Rx,0,8,00,00,00,00,00,00,00,26,
775000,000001A4,false,Rx,0,8,00,68,00,00,00,00,00,1A,
775000,000001AA,false,Rx,0,8,7F,FF,00,00,00,00,68,10,
777000,000001B0,false,Rx,0,7,80,50,7F,FF,00,00,1A,00,
777000,00000156,false,Rx,0,6,FF,EF,00,00,07,28,00,00,
777000,000001D0,false,Rx,0,8,30,60,60,B8,C1,89,83,E1,
777000,000001E7,false,Rx,0,4,1A,00,68,18,00,00,00,00,
778000,00000158,false,Rx,0,8,17,C5,06,C6,17,C5,98,2D,
778000,00000188,false,Rx,0,6,04,04,80,08,00,5A,00,00,
0,0000018E,false,Rx,0,3,00,06,38,00,00,00,00,00,
0,00000039,false,Rx,0,2,00,39,00,00,00,00,00,00,
783000,00000097,false,Rx,0,8,80,A0,20,01,FA,00,00,19,
0,00000136,false,Rx,0,8,00,00,00,12,05,00,00,06,
0,0000013A,false,Rx,0,8,00,00,00,00,00,00,00,0A,
785000,0000013F,false,Rx,0,8,01,18,01,1D,00,28,00,02,
785000,0000017C,false,Rx,0,8,00,00,07,0D,48,00,00,04,
785000,000001DC,false,Rx,0,4,02,07,0D,26,00,00,00,00,
785000,00000320,false,Rx,0,3,00,00,21,00,00,00,00,00,
785000,00000324,false,Rx,0,8,7C,46,23,75,46,0D,00,28,
786000,0000037C,false,Rx,0,8,DC,00,DC,32,00,01,00,28,
786000,0000015A,false,Rx,0,8,00,00,00,00,00,00,00,35,
786000,000001C0,false,Rx,0,7,00,00,10,00,00,00,37,00,
786000,000003D7,false,Rx,0,8,B0,00,00,00,00,00,00,51,
787000,00000400,false,Rx,0,5,00,00,00,00,22,00,00,00,
787000,00000156,false,Rx,0,6,FF,EF,00,01,07,36,00,00,
787000,0000040C,false,Rx,0,8,4D,00,7F,FD,26,80,00,23,
0,000001A6,false,Rx,0,8,02,00,00,46,6A,80,00,30,
0,00000294,false,Rx,0,8,00,15,00,03,FA,C1,20,08,
788000,00000158,false,Rx,0,8,17,C4,06,C4,17,C4,98,30,
788000,00000188,false,Rx,0,6,04,04,80,08,00,69,00,00,
788000,00000454,false,Rx,0,6,37,F5,02,29,90,25,00,00,
788000,00000465,false,Rx,0,7,FF,FF,FF,FF,FF,FF,23,00,
0,0000018E,false,Rx,0,3,00,09,08,00,00,00,00,00,
0,000006C1,false,Rx,0,1,14,00,00,00,00,00,00,00,
790000,00000039,false,Rx,0,2,00,0C,00,00,00,00,00,00,
793000,00000097,false,Rx,0,8,80,60,10,01,F9,00,00,2E,
0,00000136,false,Rx,0,8,00,00,00,12,05,00,00,15,
0,0000013A,false,Rx,0,8,00,00,00,00,00,00,00,19,
794000,0000013F,false,Rx,0,8,01,18,01,1A,00,00,00,1E,
794000,0000017C,false,Rx,0,8,00,00,07,0D,48,00,00,13,
795000,0000033D,false,Rx,0,4,01,40,00,3D,00,00,00,00,
0,0000015A,false,Rx,0,8,00,00,00,00,00,00,00,08,
0,000001A4,false,Rx,0,8,00,68,00,00,00,00,00,29,
797000,000001AA,false,Rx,0,8,7F,FF,00,00,00,00,68,2F,
0,000001B0,false,Rx,0,7,80,50,7F,FF,00,00,29,00,
0,00000156,false,Rx,0,6,FF,EF,00,01,07,09,00,00,
797000,000001D0,false,Rx,0,8,30,60,60,A4,C1,89,7E,73,
797000,000001E7,false,Rx,0,4,1A,00,68,27,00,00,00,00,
798000,00000158,false,Rx,0,8,17,BE,06,C3,17,BE,98,02,
798000,00000188,false,Rx,0,6,04,04,80,08,00,78,00,00,
799000,0000018E,false,Rx,0,3,00,09,17,00,00,00,00,00,
801000,00000039,false,Rx,0,2,00,1B,00,00,00,00,00,00,
803000,00000097,false,Rx,0,8,80,60,10,01,FD,00,00,39,
0,00000136,false,Rx,0,8,00,00,00,12,05,00,00,24,
0,0000013A,false,Rx,0,8,00,00,00,00,00,00,00,28,
804000,0000013F,false,Rx,0,8,01,18,01,1A,FF,EC,00,25,
804000,0000017C,false,Rx,0,8,00,00,07,0B,48,00,00,24,
805000,000001DC,false,Rx,0,4,02,07,0B,37,00,00,00,00,
805000,0000015A,false,Rx,0,8,00,00,00,00,00,00,00,17,
805000,000001C0,false,Rx,0,7,00,00,10,00,00,00,0A,00,
807000,00000156,false,Rx,0,6,FF,EF,00,00,07,19,00,00,
807000,000001A6,false,Rx,0,8,02,00,00,46,6A,80,00,03,
0,00000158,false,Rx,0,8,17,BE,06,C2,17,BE,98,12,
0,00000188,false,Rx,0,6,04,04,80,08,00,4B,00,00,
808000,0000018E,false,Rx,0,3,00,05,2A,00,00,00,00,00,
811000,00000039,false,Rx,0,2,00,2A,00,00,00,00,00,00,
811000,00000305,false,Rx,0,2,0E,11,00,00,00,00,00,00,
812000,00000097,false,Rx,0,8,80,60,10,01,FF,00,00,0A,
0,00000136,false,Rx,0,8,00,00,00,12,05,00,00,33,
0,0000013A,false,Rx,0,8,00,00,00,00,00,00,00,37,
815000,0000013F,false,Rx,0,8,01,18,01,1A,00,1E,00,3D,
815000,0000017C,false,Rx,0,8,00,00,07,0E,48,00,00,30,
0,0000015A,false,Rx,0,8,00,00,FF,BD,00,00,00,20,
0,000001A4,false,Rx,0,8,00,68,00,00,00,00,00,38,
817000,000001AA,false,Rx,0,8,7F,FF,00,00,00,00,68,3E,
817000,000001B0,false,Rx,0,7,80,10,7F,FF,00,00,3C,00,
817000,00000156,false,Rx,0,6,FF,EF,00,00,07,28,00,00,
817000,000001D0,false,Rx,0,8,30,52,60,C0,C1,71,80,B6,
817000,000001E7,false,Rx,0,4,1A,00,68,36,00,00,00,00,
818000,0000030C,false,Rx,0,8,18,BD,22,46,01,60,90,19,
818000,00000158,false,Rx,0,8,17,BE,06,C4,17,BE,98,2F,
818000,00000188,false,Rx,0,6,04,04,80,08,00,5A,00,00,
819000,0000018E,false,Rx,0,3,00,06,38,00,00,00,00,00,
0,00000097,false,Rx,0,8,80,60,20,02,00,00,00,15,
0,00000039,false,Rx,0,2,00,39,00,00,00,00,00,00,
825000,00000136,false,Rx,0,8,00,00,00,12,05,00,00,06,
825000,0000013A,false,Rx,0,8,00,00,00,00,00,00,00,0A,
825000,0000013F,false,Rx,0,8,01,18,01,1A,00,00,00,0F,
0,0000017C,false,Rx,0,8,00,00,07,0E,48,00,00,03,
0,000001DC,false,Rx,0,4,02,07,0E,07,00,00,00,00,
826000,0000015A,false,Rx,0,8,00,00,FF,BD,00,00,00,3F,
826000,000001C0,false,Rx,0,7,00,00,10,00,00,00,19,00,
827000,00000156,false,Rx,0,6,FF,EF,00,01,07,36,00,00,
827000,000001A6,false,Rx,0,8,02,00,00,45,6A,80,00,13,
827000,00000294,false,Rx,0,8,00,15,00,03,FA,C1,20,17,
0,00000158,false,Rx,0,8,17,C3,06,C5,17,C3,98,31,
0,00000188,false,Rx,0,6,04,04,80,08,00,69,00,00,
829000,0000018E,false,Rx,0,3,00,03,0E,00,00,00,00,00,
833000,00000097,false,Rx,0,8,80,A0,20,02,00,00,00,20,
834000,00000039,false,Rx,0,2,00,0C,00,00,00,00,00,00,
0,00000136,false,Rx,0,8,00,00,00,12,05,00,00,15,
0,0000013A,false,Rx,0,8,00,00,00,00,00,00,00,19,
835000,0000013F,false,Rx,0,8,01,18,01,1A,FF,E2,00,10,
835000,0000017C,false,Rx,0,8,00,00,07,0B,48,00,00,15,
836000,0000015A,false,Rx,0,8,00,00,FF,BD,00,00,00,02,
836000,000001A4,false,Rx,0,8,00,68,00,00,00,00,00,0B,
836000,000001AA,false,Rx,0,8,7F,FF,00,00,00,00,68,01,
836000,000001B0,false,Rx,0,7,80,10,7F,FF,00,00,0F,00,
836000,00000156,false,Rx,0,6,FF,EF,00,01,07,09,00,00,
836000,000001D0,false,Rx,0,8,30,74,60,C0,C1,19,82,CD,
837000,000001E7,false,Rx,0,4,1A,00,68,09,00,00,00,00,
0,00000158,false,Rx,0,8,17,C7,06,C5,17,C7,98,0C,
0,00000188,false,Rx,0,6,04,04,80,08,00,78,00,00,
0,0000018E,false,Rx,0,3,00,04,1C,00,00,00,00,00,
842000,00000097,false,Rx,0,8,80,A0,30,02,01,00,00,3D,
0,00000136,false,Rx,0,8,00,00,00,12,05,00,00,24,
0,0000013A,false,Rx,0,8,00,00,00,00,00,00,00,28,
844000,0000013F,false,Rx,0,8,01,18,01,1A,00,00,00,2D,
844000,00000039,false,Rx,0,2,00,1B,00,00,00,00,00,00,
844000,0000017C,false,Rx,0,8,00,00,07,0B,48,00,00,24,
844000,000001DC,false,Rx,0,4,02,07,0B,19,00,00,00,00,
0,0000015A,false,Rx,0,8,00,00,FF,BD,00,00,00,11,
0,000001C0,false,Rx,0,7,00,00,10,00,00,00,28,00,
847000,00000156,false,Rx,0,6,FF,EF,00,01,07,18,00,00,
847000,000001A6,false,Rx,0,8,02,00,00,45,66,80,00,26,
848000,00000158,false,Rx,0,8,17,C8,06,C4,17,C8,98,1A,
848000,00000188,false,Rx,0,6,04,04,80,08,00,4B,00,00,
848000,0000018E,false,Rx,0,3,00,03,2C,00,00,00,00,00,
853000,00000097,false,Rx,0,8,80,A0,20,02,00,00,00,02,
854000,00000136,false,Rx,0,8,00,00,00,12,05,00,00,33,
854000,0000013A,false,Rx,0,8,00,00,00,00,00,00,00,37,
854000,0000013F,false,Rx,0,8,01,18,01,1A,00,14,00,37,
855000,0000017C,false,Rx,0,8,00,00,07,0D,48,00,00,31,
0,00000039,false,Rx,0,2,00,2A,00,00,00,00,00,00,
0,0000015A,false,Rx,0,8,00,00,FF,BD,00,00,00,20,
856000,000001A4,false,Rx,0,8,00,68,00,00,00,00,00,1A,
0,000001AA,false,Rx,0,8,7F,FF,00,00,00,00,68,10,
0,000001B0,false,Rx,0,7,80,50,7F,FF,00,00,1A,00,
858000,00000156,false,Rx,0,6,FF,EF,00,00,07,28,00,00,
0,000001D0,false,Rx,0,8,30,7E,60,2C,C1,89,81,43,
0,000001E7,false,Rx,0,4,1A,00,68,18,00,00,00,00,
858000,00000158,false,Rx,0,8,17,C3,06,C5,17,C3,98,22,
0,00000188,false,Rx,0,6,04,04,80,08,00,5A,00,00,
0,0000018E,false,Rx,0,3,00,09,35,00,00,00,00,00,
863000,00000097,false,Rx,0,8,80,A0,20,01,FF,00,00,14,
864000,00000136,false,Rx,0,8,00,00,00,12,05,00,00,06,
864000,0000013A,false,Rx,0,8,00,00,00,00,00,00,00,0A,
864000,0000013F,false,Rx,0,8,01,19,01,1A,FF,E2,00,00,
864000,0000017C,false,Rx,0,8,00,00,07,0A,48,00,00,07,
864000,000001DC,false,Rx,0,4,02,07,0A,29,00,00,00,00,
0,0000015A,false,Rx,0,8,00,00,00,00,00,00,00,35,
0,000001C0,false,Rx,0,7,00,00,10,00,00,00,37,00,
0,00000156,false,Rx,0,6,FF,EE,00,03,07,35,00,00,
0,00000039,false,Rx,0,2,00,39,00,00,00,00,00,00,
867000,000001A6,false,Rx,0,8,02,00,00,45,66,80,00,35,
867000,00000294,false,Rx,0,8,00,15,00,03,FA,C1,20,26,
867000,00000309,false,Rx,0,8,18,F8,00,00,00,3F,00,73,
0,00000158,false,Rx,0,8,17,BE,06,C4,17,BE,98,3E,
0,00000188,false,Rx,0,6,04,04,80,08,00,69,00,00,
868000,00000377,false,Rx,0,8,18,06,7B,74,AE,00,A2,34,
868000,00000374,false,Rx,0,7,00,00,00,00,00,00,37,00,
868000,0000018E,false,Rx,0,3,00,07,0A,00,00,00,00,00,
868000,00000378,false,Rx,0,8,08,31,06,13,40,60,00,33,
869000,00000405,false,Rx,0,8,00,00,00,00,00,00,00,3C,
869000,00000428,false,Rx,0,7,00,00,00,00,00,00,37,00,
872000,00000097,false,Rx,0,8,80,A0,20,01,FE,00,00,24,
0,00000136,false,Rx,0,8,00,00,00,12,05,00,00,15,
0,0000013A,false,Rx,0,8,00,00,00,00,00,00,00,19,
0,0000013F,false,Rx,0,8,01,19,01,1A,00,00,00,1D,
875000,0000017C,false,Rx,0,8,00,00,07,0A,48,00,00,16,
876000,0000015A,false,Rx,0,8,00,00,00,00,00,00,00,08,
876000,000001A4,false,Rx,0,8,00,68,00,00,00,00,00,29,
876000,000001AA,false,Rx,0,8,7F,FF,00,00,00,00,68,2F,
876000,000001B0,false,Rx,0,7,80,50,7F,FF,00,00,29,00,
876000,00000156,false,Rx,0,6,FF,EE,00,01,07,0A,00,00,
876000,000001D0,false,Rx,0,8,30,60,60,98,C1,A9,83,3C,
876000,000001E7,false,Rx,0,4,1A,00,68,27,00,00,00,00,
0,00000158,false,Rx,0,8,17,B7,06,BF,17,B7,98,05,
0,00000039,false,Rx,0,2,00,0C,00,00,00,00,00,00,
878000,00000188,false,Rx,0,6,04,04,80,08,00,78,00,00,
878000,0000018E,false,Rx,0,3,00,17,18,00,00,00,00,00,
883000,00000097,false,Rx,0,8,80,60,10,01,FD,00,00,39,
885000,00000136,false,Rx,0,8,00,00,00,12,05,00,00,24,
885000,0000013A,false,Rx,0,8,00,00,00,00,00,00,00,28,
885000,0000013F,false,Rx,0,8,01,19,01,1A,00,00,00,2C,
885000,0000017C,false,Rx,0,8,00,00,07,0A,48,00,00,25,
885000,000001DC,false,Rx,0,4,02,07,0A,38,00,00,00,00,
886000,00000320,false,Rx,0,3,00,00,30,00,00,00,00,00,
886000,00000324,false,Rx,0,8,7C,46,23,76,46,F3,00,31,
886000,0000037C,false,Rx,0,8,F1,00,F1,32,00,01,00,39,
886000,0000015A,false,Rx,0,8,00,00,00,00,00,00,00,17,
886000,000001C0,false,Rx,0,7,00,00,10,00,00,00,0A,00,
887000,00000156,false,Rx,0,6,FF,EF,00,01,07,18,00,00,
887000,000001A6,false,Rx,0,8,02,00,00,45,66,80,00,08,
888000,00000158,false,Rx,0,8,17,B2,06,BD,17,B2,98,10,
888000,00000188,false,Rx,0,6,04,04,80,08,00,4B,00,00,
0,0000018E,false,Rx,0,3,00,14,2A,00,00,00,00,00,
0,00000039,false,Rx,0,2,00,1B,00,00,00,00,00,00,
892000,00000097,false,Rx,0,8,80,60,20,01,FE,00,00,0A,
0,00000136,false,Rx,0,8,00,00,00,12,05,00,00,33,
0,0000013A,false,Rx,0,8,00,00,00,00,00,00,00,37,
894000,0000013F,false,Rx,0,8,01,19,01,14,00,00,00,31,
0,0000017C,false,Rx,0,8,00,00,07,0A,48,00,00,34,
0,0000033D,false,Rx,0,4,01,40,00,00,00,00,00,00,
895000,0000015A,false,Rx,0,8,00,00,00,00,00,00,00,26,
896000,000001A4,false,Rx,0,8,00,68,00,00,00,00,00,38,
896000,000001AA,false,Rx,0,8,7F,FF,00,00,00,00,68,3E,
896000,000001B0,false,Rx,0,7,80,10,7F,FF,00,00,3C,00,
896000,00000156,false,Rx,0,6,FF,EE,00,00,07,29,00,00,
896000,000001D0,false,Rx,0,8,30,2A,61,A8,C1,51,84,9A,
896000,000001E7,false,Rx,0,4,1A,00,68,36,00,00,00,00,
0,00000158,false,Rx,0,8,17,B1,06,C1,17,B1,98,2C,
0,00000188,false,Rx,0,6,04,04,80,08,00,5A,00,00,
899000,0000018E,false,Rx,0,3,00,0A,34,00,00,00,00,00,
900000,00000039,false,Rx,0,2,00,2A,00,00,00,00,00,00,
902000,00000097,false,Rx,0,8,80,60,20,02,03,00,00,12,
0,00000136,false,Rx,0,8,00,00,00,12,05,00,00,06,
0,0000013A,false,Rx,0,8,00,00,00,00,00,00,00,0A,
0,0000013F,false,Rx,0,8,01,19,01,15,FF,E2,00,05,
0,0000017C,false,Rx,0,8,00,00,07,07,48,00,00,0A,
905000,000001DC,false,Rx,0,4,02,07,07,0E,00,00,00,00,
906000,0000015A,false,Rx,0,8,00,00,00,00,00,00,00,35,
906000,000001C0,false,Rx,0,7,00,00,10,00,00,00,19,00,
906000,00000156,false,Rx,0,6,FF,EE,00,01,07,37,00,00,
907000,000001A6,false,Rx,0,8,02,00,00,45,69,80,00,14,
907000,00000294,false,Rx,0,8,00,15,00,03,FA,C1,20,35,
907000,00000158,false,Rx,0,8,17,B9,06,C4,17,B9,98,38,
907000,00000188,false,Rx,0,6,04,04,80,08,00,69,00,00,
908000,0000018E,false,Rx,0,3,00,01,00,00,00,00,00,00,
911000,00000039,false,Rx,0,2,00,39,00,00,00,00,00,00,
913000,00000097,false,Rx,0,8,80,20,10,02,09,00,00,20,
915000,00000136,false,Rx,0,8,00,00,00,12,05,00,00,15,
915000,0000013A,false,Rx,0,8,00,00,00,00,00,00,00,19,
915000,0000013F,false,Rx,0,8,01,19,01,14,00,1E,00,14,
915000,0000017C,false,Rx,0,8,00,00,07,0A,48,00,00,16,
0,0000015A,false,Rx,0,8,00,00,00,00,00,00,00,08,
0,000001A4,false,Rx,0,8,00,68,00,00,00,00,00,0B,
917000,000001AA,false,Rx,0,8,7F,FF,00,00,00,00,68,01,
917000,000001B0,false,Rx,0,7,80,10,7F,FF,00,00,0F,00,
917000,00000156,false,Rx,0,6,FF,EE,00,01,07,0A,00,00,
917000,000001D0,false,Rx,0,8,30,38,61,4C,C1,51,84,06,
917000,000001E7,false,Rx,0,4,1A,00,68,09,00,00,00,00,
917000,00000305,false,Rx,0,2,0E,20,00,00,00,00,00,00,
918000,0000030C,false,Rx,0,8,18,BC,22,46,01,60,90,29,
918000,00000158,false,Rx,0,8,17,C3,06,C6,17,C3,98,03,
918000,00000188,false,Rx,0,6,04,04,80,08,00,78,00,00,
919000,0000018E,false,Rx,0,3,00,06,1A,00,00,00,00,00,
922000,00000039,false,Rx,0,2,00,0C,00,00,00,00,00,00,
923000,00000097,false,Rx,0,8,80,20,10,02,09,00,00,3F,
924000,00000136,false,Rx,0,8,00,00,00,12,05,00,00,24,
925000,0000013A,false,Rx,0,8,00,00,00,00,00,00,00,28,
925000,0000013F,false,Rx,0,8,01,19,01,14,00,00,00,22,
925000,0000017C,false,Rx,0,8,00,00,07,0A,48,00,00,25,
925000,000001DC,false,Rx,0,4,02,07,0A,1A,00,00,00,00,
926000,0000015A,false,Rx,0,8,00,00,00,00,00,00,00,17,
926000,000001C0,false,Rx,0,7,00,00,10,00,00,00,28,00,
927000,00000156,false,Rx,0,6,FF,EE,00,00,07,1A,00,00,
927000,000001A6,false,Rx,0,8,02,00,00,47,6A,80,00,20,
928000,00000158,false,Rx,0,8,17,CE,06,C7,17,CE,98,1B,
928000,00000188,false,Rx,0,6,04,04,80,08,00,4B,00,00,
928000,0000018E,false,Rx,0,3,00,00,2F,00,00,00,00,00,
0,00000097,false,Rx,0,8,80,20,10,02,0A,00,00,01,
0,00000039,false,Rx,0,2,00,1B,00,00,00,00,00,00,
0,00000136,false,Rx,0,8,00,00,00,12,05,00,00,33,
0,0000013A,false,Rx,0,8,00,00,00,00,00,00,00,37,
0,0000013F,false,Rx,0,8,01,19,01,15,FF,E2,00,32,
0,0000017C,false,Rx,0,8,00,00,07,07,48,00,00,37,
0,0000015A,false,Rx,0,8,00,00,00,00,00,00,00,26,
0,000001A4,false,Rx,0,8,00,68,00,00,00,00,00,1A,
936000,000001AA,false,Rx,0,8,7F,FF,00,00,00,00,68,10,
936000,000001B0,false,Rx,0,7,80,10,7F,FF,00,00,1E,00,
936000,00000156,false,Rx,0,6,FF,EF,00,02,07,26,00,00,
937000,000001D0,false,Rx,0,8,30,4C,60,0C,C2,19,82,8B,
937000,000001E7,false,Rx,0,4,1A,00,68,18,00,00,00,00,
0,00000158,false,Rx,0,8,17,D0,06,CB,17,D0,98,20,
0,00000188,false,Rx,0,6,04,04,80,08,00,5A,00,00,
938000,0000018E,false,Rx,0,3,00,04,3A,00,00,00,00,00,
943000,00000097,false,Rx,0,8,80,20,00,02,0C,00,00,1F,
944000,00000039,false,Rx,0,2,00,2A,00,00,00,00,00,00,
944000,00000136,false,Rx,0,8,00,00,00,12,05,00,00,06,
944000,0000013A,false,Rx,0,8,00,00,00,00,00,00,00,0A,
944000,0000013F,false,Rx,0,8,01,19,01,15,00,00,00,03,
945000,0000017C,false,Rx,0,8,00,00,07,07,48,00,00,0A,
945000,000001DC,false,Rx,0,4,02,07,07,2C,00,00,00,00,
946000,0000015A,false,Rx,0,8,00,00,00,00,00,00,00,35,
946000,000001C0,false,Rx,0,7,00,00,10,00,00,00,37,00,
946000,00000156,false,Rx,0,6,FF,EE,00,01,07,37,00,00,
946000,000001A6,false,Rx,0,8,02,00,00,47,6B,80,00,3E,
947000,00000294,false,Rx,0,8,00,15,00,03,FA,C1,20,08,
947000,00000158,false,Rx,0,8,17,C4,06,C6,17,C4,98,3E,
947000,00000188,false,Rx,0,6,04,04,80,08,00,69,00,00,
949000,0000018E,false,Rx,0,3,00,00,01,00,00,00,00,00,
953000,00000097,false,Rx,0,8,7F,E0,00,02,0B,00,00,25,
955000,00000136,false,Rx,0,8,00,00,00,12,05,00,00,15,
955000,0000013A,false,Rx,0,8,00,00,00,00,00,00,00,19,
0,0000013F,false,Rx,0,8,01,19,01,14,00,14,00,1E,
0,00000039,false,Rx,0,2,00,39,00,00,00,00,00,00,
955000,0000017C,false,Rx,0,8,00,00,07,09,48,00,00,17,
0,0000015A,false,Rx,0,8,00,60,00,00,00,00,00,02,
0,000001A4,false,Rx,0,8,00,68,00,00,00,00,00,29,
956000,000001AA,false,Rx,0,8,7F,FF,00,00,00,00,68,2F,
956000,000001B0,false,Rx,0,7,80,10,7F,FF,00,00,2D,00,
956000,00000156,false,Rx,0,6,FF,EE,00,01,07,0A,00,00,
956000,000001D0,false,Rx,0,8,30,4C,5F,5C,C1,E1,82,EE,
956000,000001E7,false,Rx,0,4,1A,00,68,27,00,00,00,00,
0,00000158,false,Rx,0,8,17,B4,06,BA,17,B4,98,00,
0,00000188,false,Rx,0,6,04,04,80,08,00,78,00,00,
959000,0000018E,false,Rx,0,3,00,03,1D,00,00,00,00,00,
963000,00000097,false,Rx,0,8,7F,E0,00,02,0E,00,00,31,
0,00000136,false,Rx,0,8,00,00,00,12,05,00,00,24,
0,0000013A,false,Rx,0,8,00,00,00,00,00,00,00,28,
964000,0000013F,false,Rx,0,8,01,19,01,15,FF,EC,00,29,
964000,0000017C,false,Rx,0,8,00,00,07,07,48,00,00,28,
965000,000001DC,false,Rx,0,4,02,07,07,3B,00,00,00,00,
0,00000039,false,Rx,0,2,00,0C,00,00,00,00,00,00,
0,0000015A,false,Rx,0,8,00,48,00,00,00,00,00,1B,
0,000001C0,false,Rx,0,7,00,00,10,00,00,00,0A,00,
967000,00000156,false,Rx,0,6,FF,EE,00,02,07,18,00,00,
0,000001A6,false,Rx,0,8,02,00,00,47,6A,80,00,02,
0,00000309,false,Rx,0,8,18,F4,00,00,00,3F,00,4A,
968000,00000374,false,Rx,0,7,00,00,00,00,00,00,0A,00,
968000,00000158,false,Rx,0,8,17,A1,06,B5,17,A1,98,1C,
968000,00000188,false,Rx,0,6,04,04,80,08,00,4B,00,00,
968000,00000378,false,Rx,0,8,08,31,06,13,40,60,00,06,
969000,00000377,false,Rx,0,8,18,06,7B,74,AE,00,A2,07,
969000,0000018E,false,Rx,0,3,00,0D,22,00,00,00,00,00,
973000,00000097,false,Rx,0,8,7F,E0,00,02,0B,00,00,07,
974000,00000136,false,Rx,0,8,00,00,00,12,05,00,00,33,
975000,0000013A,false,Rx,0,8,00,00,00,00,00,00,00,37,
975000,0000013F,false,Rx,0,8,01,19,01,15,00,00,00,30,
975000,0000017C,false,Rx,0,8,00,00,07,07,48,00,00,37,
976000,0000015A,false,Rx,0,8,00,37,00,00,00,00,00,2C,
976000,000001A4,false,Rx,0,8,00,68,00,00,00,00,00,38,
976000,000001AA,false,Rx,0,8,7F,FF,00,00,00,00,68,3E,
976000,000001B0,false,Rx,0,7,80,10,7F,FF,00,00,3C,00,
976000,00000156,false,Rx,0,6,FF,EE,00,01,07,28,00,00,
977000,00000039,false,Rx,0,2,00,1B,00,00,00,00,00,00,
977000,000001D0,false,Rx,0,8,30,4C,60,48,C0,F9,84,32,
977000,000001E7,false,Rx,0,4,1A,00,68,36,00,00,00,00,
0,00000158,false,Rx,0,8,17,95,06,B6,17,95,98,24,
0,00000188,false,Rx,0,6,04,04,80,08,00,5A,00,00,
978000,0000018E,false,Rx,0,3,00,09,35,00,00,00,00,00,
983000,00000097,false,Rx,0,8,7F,DF,F0,02,05,00,00,1F,
985000,00000136,false,Rx,0,8,00,00,00,12,05,00,00,06,
985000,0000013A,false,Rx,0,8,00,00,00,00,00,00,00,0A,
985000,0000013F,false,Rx,0,8,01,19,01,14,00,0A,00,0A,
985000,0000017C,false,Rx,0,8,00,00,07,08,48,00,00,09,
985000,000001DC,false,Rx,0,4,02,07,08,0D,00,00,00,00,
985000,00000320,false,Rx,0,3,00,00,03,00,00,00,00,00,
985000,00000324,false,Rx,0,8,7C,46,23,76,46,EF,00,09,
985000,0000037C,false,Rx,0,8,F4,00,F4,32,00,01,00,06,
985000,0000015A,false,Rx,0,8,00,2B,00,00,00,00,00,38,
985000,000001C0,false,Rx,0,7,00,00,10,00,00,00,19,00,
986000,000003D7,false,Rx,0,8,B0,C1,04,00,00,00,00,23,
986000,00000156,false,Rx,0,6,FF,EE,00,00,07,38,00,00,
986000,000001A6,false,Rx,0,8,02,00,00,47,6B,80,00,10,
988000,00000294,false,Rx,0,8,00,15,00,03,FA,C1,20,17,
0,00000158,false,Rx,0,8,17,98,06,BA,17,98,98,39,
0,00000039,false,Rx,0,2,00,2A,00,00,00,00,00,00,
988000,00000188,false,Rx,0,6,04,04,80,08,00,69,00,00,
989000,0000018E,false,Rx,0,3,00,00,01,00,00,00,00,00,
992000,00000097,false,Rx,0,8,7F,E0,00,02,05,00,00,2B,
0,00000136,false,Rx,0,8,00,00,00,12,05,00,00,15,
0,0000013A,false,Rx,0,8,00,00,00,00,00,00,00,19,
994000,0000013F,false,Rx,0,8,01,19,01,11,00,00,00,16,
994000,0000017C,false,Rx,0,8,00,00,07,08,48,00,00,18,
995000,0000033D,false,Rx,0,4,01,40,00,1F,00,00,00,00,
0,0000015A,false,Rx,0,8,00,22,00,00,00,00,00,04,
0,000001A4,false,Rx,0,8,00,69,00,00,00,00,00,0A,
996000,000001AA,false,Rx,0,8,7F,FF,00,00,00,00,69,00,
996000,000001B0,false,Rx,0,7,80,10,7F,FF,00,00,0F,00,
996000,00000156,false,Rx,0,6,FF,EF,00,01,07,09,00,00,
996000,000001D0,false,Rx,0,8,30,3E,61,60,C1,F1,86,77,
0,000001E7,false,Rx,0,4,1A,00,68,09,00,00,00,00,
0,00000158,false,Rx,0,8,17,AB,06,C0,17,AB,98,0D,
997000,00000188,false,Rx,0,6,04,04,80,08,00,78,00,00,
0,0000018E,false,Rx,0,3,00,02,1E,00,00,00,00,00,
0,00000039,false,Rx,0,2,00,39,00,00,00,00,00,00,
2000,00000097,false,Rx,0,8,7F,DF,F0,02,06,00,00,3C,
3000,00000136,false,Rx,0,8,00,00,00,12,05,00,00,24,
3000,0000013A,false,Rx,0,8,00,00,00,00,00,00,00,28,
5000,0000013F,false,Rx,0,8,01,19,01,10,FF,F6,00,23,
5000,0000017C,false,Rx,0,8,00,00,07,07,48,00,00,28,
5000,000001DC,false,Rx,0,4,02,07,07,1D,00,00,00,00,
0,0000015A,false,Rx,0,8,00,1C,00,43,00,00,00,13,
0,000001C0,false,Rx,0,7,00,00,10,00,00,00,28,00,
7000,00000156,false,Rx,0,6,FF,EE,00,01,07,19,00,00,
7000,000001A6,false,Rx,0,8,02,00,00,47,6A,80,00,20,
8000,00000158,false,Rx,0,8,17,C5,06,C7,17,C5,99,1C,
8000,00000188,false,Rx,0,6,04,04,80,08,00,4B,00,00,
9000,0000018E,false,Rx,0,3,00,04,2B,00,00,00,00,00,
10000,00000039,false,Rx,0,2,00,0C,00,00,00,00,00,00,
13000,00000097,false,Rx,0,8,7F,9F,F0,02,04,00,00,05,
0,00000136,false,Rx,0,8,00,00,00,12,05,00,00,33,
0,0000013A,false,Rx,0,8,00,00,00,00,00,00,00,37,
15000,0000013F,false,Rx,0,8,01,19,01,10,00,14,00,30,
15000,0000017C,false,Rx,0,8,00,00,07,09,48,00,00,35,
0,0000015A,false,Rx,0,8,00,18,00,43,00,00,00,26,
0,000001A4,false,Rx,0,8,00,69,00,00,00,00,00,19,
16000,000001AA,false,Rx,0,8,7F,FF,00,00,00,00,69,1F,
16000,000001B0,false,Rx,0,7,80,10,7F,FF,00,00,1E,00,
16000,00000156,false,Rx,0,6,FF,EE,00,02,07,27,00,00,
17000,000001D0,false,Rx,0,8,30,34,61,30,C1,F1,83,59,
17000,000001E7,false,Rx,0,4,1A,00,68,18,00,00,00,00,
17000,0000030C,false,Rx,0,8,18,B8,20,46,01,60,90,3E,
18000,00000158,false,Rx,0,8,17,D9,06,D2,17,D9,99,25,
18000,00000188,false,Rx,0,6,04,04,80,08,00,5A,00,00,
18000,0000018E,false,Rx,0,3,00,07,37,00,00,00,00,00,
0,00000039,false,Rx,0,2,00,1B,00,00,00,00,00,00,
0,00000305,false,Rx,0,2,0E,3F,00,00,00,00,00,00,
23000,00000097,false,Rx,0,8,7F,9F,E0,02,02,00,00,17,
0,00000136,false,Rx,0,8,00,00,00,12,05,00,00,06,
0,0000013A,false,Rx,0,8,00,00,00,00,00,00,00,0A,
24000,0000013F,false,Rx,0,8,01,19,01,11,00,00,00,07,
25000,0000017C,false,Rx,0,8,00,00,07,09,48,00,00,08,
25000,000001DC,false,Rx,0,4,02,07,09,2A,00,00,00,00,
25000,0000015A,false,Rx,0,8,00,02,00,43,00,00,00,3C,
25000,000001C0,false,Rx,0,7,00,00,10,00,00,00,37,00,
26000,00000156,false,Rx,0,6,FF,EE,00,01,07,37,00,00,
27000,000001A6,false,Rx,0,8,02,00,00,45,6A,80,00,31,
0,00000294,false,Rx,0,8,00,15,00,03,FA,C1,20,26,
0,00000158,false,Rx,0,8,17,DC,06,CE,17,DC,99,33,
28000,00000188,false,Rx,0,6,04,04,80,08,00,69,00,00,
28000,0000018E,false,Rx,0,3,00,04,0D,00,00,00,00,00,
32000,00000039,false,Rx,0,2,00,2A,00,00,00,00,00,00,
32000,00000097,false,Rx,0,8,7F,9F,E0,02,02,00,00,26,
0,00000136,false,Rx,0,8,00,00,00,12,05,00,00,15,
0,0000013A,false,Rx,0,8,00,00,00,00,00,00,00,19,
35000,0000013F,false,Rx,0,8,01,19,01,11,FF,F6,00,13,
35000,0000017C,false,Rx,0,8,00,00,07,08,48,00,00,18,
0,0000015A,false,Rx,0,8,00,00,00,43,00,00,00,01,
0,000001A4,false,Rx,0,8,00,68,00,00,00,00,00,29,
36000,000001AA,false,Rx,0,8,7F,FF,00,00,00,00,68,2F,
36000,000001B0,false,Rx,0,7,7F,D0,7F,FF,00,00,23,00,
36000,00000156,false,Rx,0,6,FF,EE,00,00,07,0B,00,00,
37000,000001D0,false,Rx,0,8,30,42,60,3C,C1,D1,7F,29,
37000,000001E7,false,Rx,0,4,1A,00,68,27,00,00,00,00,
0,00000158,false,Rx,0,8,17,C8,06,BF,17,C8,99,00,
0,00000188,false,Rx,0,6,04,04,80,08,00,78,00,00,
38000,0000018E,false,Rx,0,3,00,05,1B,00,00,00,00,00,
0,00000097,false,Rx,0,8,7F,5F,E0,02,05,00,00,36,
0,00000039,false,Rx,0,2,00,39,00,00,00,00,00,00,
0,00000136,false,Rx,0,8,00,00,00,12,05,00,00,24,
0,0000013A,false,Rx,0,8,00,00,00,00,00,00,00,28,
45000,0000013F,false,Rx,0,8,01,19,01,11,00,00,00,25,
0,0000017C,false,Rx,0,8,00,00,07,08,48,00,00,27,
0,000001DC,false,Rx,0,4,02,07,08,3A,00,00,00,00,
46000,0000015A,false,Rx,0,8,00,00,00,00,00,00,00,17,
46000,000001C0,false,Rx,0,7,00,00,10,00,00,00,0A,00,
0,00000156,false,Rx,0,6,FF,EE,00,01,07,19,00,00,
0,000001A6,false,Rx,0,8,02,00,00,45,66,80,00,08,
0,00000158,false,Rx,0,8,17,B2,06,BB,17,B2,99,11,
0,00000188,false,Rx,0,6,04,04,80,08,00,4B,00,00,
48000,0000018E,false,Rx,0,3,00,02,2D,00,00,00,00,00,
53000,00000097,false,Rx,0,8,7F,9F,F0,02,0B,00,00,0E,
54000,00000039,false,Rx,0,2,00,0C,00,00,00,00,00,00,
55000,00000136,false,Rx,0,8,00,00,00,11,05,00,00,34,
55000,0000013A,false,Rx,0,8,00,00,00,00,00,00,00,37,
55000,0000013F,false,Rx,0,8,01,10,01,10,00,28,00,34,
55000,0000017C,false,Rx,0,8,00,00,07,0C,48,00,00,32,
56000,0000015A,false,Rx,0,8,00,00,00,00,00,00,00,26,
56000,000001A4,false,Rx,0,8,00,68,00,00,00,00,00,38,
57000,000001AA,false,Rx,0,8,7F,FF,00,00,00,00,68,3E,
57000,000001B0,false,Rx,0,7,7F,90,7F,FF,00,00,36,00,
57000,00000156,false,Rx,0,6,FF,EE,00,01,07,28,00,00,
57000,000001D0,false,Rx,0,8,30,20,5F,C0,C2,29,7F,7F,
57000,000001E7,false,Rx,0,4,1A,00,68,36,00,00,00,00,
57000,00000406,false,Rx,0,5,00,00,00,01,1C,00,00,00,
58000,00000158,false,Rx,0,8,17,A0,06,B5,17,A0,99,2C,
58000,00000188,false,Rx,0,6,04,04,80,08,00,5A,00,00,
59000,0000018E,false,Rx,0,3,00,04,3A,00,00,00,00,00,
63000,00000097,false,Rx,0,8,7F,E0,00,02,0C,00,00,15,
0,00000136,false,Rx,0,8,00,00,00,11,05,00,00,07,
0,0000013A,false,Rx,0,8,00,00,00,00,00,00,00,0A,
64000,0000013F,false,Rx,0,8,01,10,01,10,FF,F6,00,0E,
64000,00000039,false,Rx,0,2,00,1B,00,00,00,00,00,00,
65000,0000017C,false,Rx,0,8,00,00,07,0B,48,00,00,06,
65000,000001DC,false,Rx,0,4,02,07,0B,0A,00,00,00,00,
66000,0000015A,false,Rx,0,8,00,00,FF,BD,00,00,00,3F,
66000,000001C0,false,Rx,0,7,00,00,10,00,00,00,19,00,
0,00000421,false,Rx,0,5,00,00,00,01,2E,00,00,00,
0,00000156,false,Rx,0,6,FF,EE,00,00,07,38,00,00,
66000,000001A6,false,Rx,0,8,02,00,00,45,63,80,00,1A,
66000,00000294,false,Rx,0,8,00,15,00,03,FA,C1,20,35,
68000,00000158,false,Rx,0,8,17,96,06,B7,17,96,99,3F,
68000,00000188,false,Rx,0,6,04,04,80,08,00,69,00,00,
68000,00000309,false,Rx,0,8,18,E1,00,00,00,3F,00,5D,
68000,00000374,false,Rx,0,7,00,00,00,00,00,00,19,00,
69000,00000377,false,Rx,0,8,18,06,7B,74,AF,00,A2,15,
69000,0000018E,false,Rx,0,3,00,04,0D,00,00,00,00,00,
69000,00000378,false,Rx,0,8,08,31,06,13,40,60,00,15,
72000,00000097,false,Rx,0,8,7F,E0,00,02,0B,00,00,25,
74000,00000136,false,Rx,0,8,00,00,00,11,05,00,00,16,
74000,0000013A,false,Rx,0,8,00,00,00,00,00,00,00,19,
74000,0000013F,false,Rx,0,8,01,07,01,10,00,00,00,1A,
74000,0000017C,false,Rx,0,8,00,00,07,0B,48,00,00,15,
0,00000039,false,Rx,0,2,00,2A,00,00,00,00,00,00,
0,0000015A,false,Rx,0,8,00,00,FF,BD,00,00,00,02,
76000,000001A4,false,Rx,0,8,00,68,00,00,00,00,00,0B,
76000,000001AA,false,Rx,0,8,7F,FF,00,00,00,00,68,01,
76000,000001B0,false,Rx,0,7,80,10,7F,FF,00,00,0F,00,
76000,00000156,false,Rx,0,6,FF,EF,00,01,07,09,00,00,
76000,000001D0,false,Rx,0,8,30,16,60,5C,C1,99,85,58,
77000,000001E7,false,Rx,0,4,1A,00,68,09,00,00,00,00,
0,00000158,false,Rx,0,8,17,A1,06,BD,17,A1,99,04,
0,00000188,false,Rx,0,6,04,04,80,08,00,78,00,00,
78000,0000018E,false,Rx,0,3,00,04,1C,00,00,00,00,00,
82000,00000097,false,Rx,0,8,80,20,10,02,0B,00,00,3D,
84000,00000136,false,Rx,0,8,00,00,00,11,05,00,00,25,
84000,0000013A,false,Rx,0,8,00,00,00,00,00,00,00,28,
84000,0000013F,false,Rx,0,8,01,07,01,10,00,00,00,29,
84000,0000017C,false,Rx,0,8,00,00,07,0B,48,00,00,24,
84000,000001DC,false,Rx,0,4,02,07,0B,19,00,00,00,00,
85000,00000320,false,Rx,0,3,00,00,12,00,00,00,00,00,
0,00000324,false,Rx,0,8,7C,46,23,77,46,04,00,10,
0,0000037C,false,Rx,0,8,E3,00,E3,32,00,01,00,19,
85000,0000015A,false,Rx,0,8,00,00,00,00,00,00,00,17,
86000,000001C0,false,Rx,0,7,00,00,10,00,00,00,28,00,
86000,00000400,false,Rx,0,5,00,00,00,00,31,00,00,00,
0,0000040C,false,Rx,0,8,4E,00,34,28,00,00,00,32,
0,00000039,false,Rx,0,2,00,39,00,00,00,00,00,00,
86000,00000156,false,Rx,0,6,FF,EE,00,01,07,19,00,00,
86000,000001A6,false,Rx,0,8,02,00,00,45,5F,80,00,2E,
86000,00000454,false,Rx,0,6,37,F5,02,29,90,34,00,00,
88000,00000158,false,Rx,0,8,17,AC,06,C1,17,AC,99,18,
88000,00000188,false,Rx,0,6,04,04,80,08,00,4B,00,00,
88000,00000465,false,Rx,0,7,FF,FF,FF,FF,FF,FF,32,00,
88000,000006C1,false,Rx,0,1,23,00,00,00,00,00,00,00,
89000,0000018E,false,Rx,0,3,00,03,2C,00,00,00,00,00,
92000,00000097,false,Rx,0,8,80,20,10,02,08,00,00,03,
0,00000136,false,Rx,0,8,00,00,00,11,05,00,00,34,
0,0000013A,false,Rx,0,8,00,00,00,00,00,00,00,37,
94000,0000013F,false,Rx,0,8,01,07,01,05,00,00,00,34,
94000,0000017C,false,Rx,0,8,00,00,07,0B,48,00,00,33,
95000,0000033D,false,Rx,0,4,01,40,00,2E,00,00,00,00,
0,0000015A,false,Rx,0,8,00,04,00,00,00,00,00,22,
0,000001A4,false,Rx,0,8,00,68,00,00,00,00,00,1A,
96000,000001AA,false,Rx,0,8,7F,FF,00,00,00,00,68,10,
96000,000001B0,false,Rx,0,7,80,10,7F,FF,00,00,1E,00,
96000,00000156,false,Rx,0,6,FF,EE,00,01,07,28,00,00,
96000,000001D0,false,Rx,0,8,30,42,60,D4,C1,09,85,52,
97000,000001E7,false,Rx,0,4,1A,00,68,18,00,00,00,00,
97000,00000158,false,Rx,0,8,17,B7,06,C1,17,B7,99,2F,
97000,00000188,false,Rx,0,6,04,04,80,08,00,5A,00,00,
97000,00000039,false,Rx,0,2,00,0C,00,00,00,00,00,00,
98000,0000018E,false,Rx,0,3,00,00,3E,00,00,00,00,00,
103000,00000097,false,Rx,0,8,80,20,00,02,04,00,00,17,
0,00000136,false,Rx,0,8,00,00,00,11,05,00,00,07,
0,0000013A,false,Rx,0,8,00,00,00,00,00,00,00,0A,
104000,0000013F,false,Rx,0,8,01,08,01,06,FF,CE,00,0D,
104000,0000017C,false,Rx,0,8,00,00,07,06,48,00,00,0B,
104000,000001DC,false,Rx,0,4,02,07,06,2D,00,00,00,00,
0,0000015A,false,Rx,0,8,00,15,00,00,00,00,00,3F,
0,000001C0,false,Rx,0,7,00,00,10,00,00,00,37,00,
107000,00000156,false,Rx,0,6,FF,EE,00,01,07,37,00,00,
0,000001A6,false,Rx,0,8,02,00,00,45,5B,80,00,31,
0,00000294,false,Rx,0,8,00,15,00,03,FA,C1,20,08,
108000,00000158,false,Rx,0,8,17,B9,06,C1,17,B9,99,3A,
108000,00000188,false,Rx,0,6,04,04,80,08,00,69,00,00,
108000,0000018E,false,Rx,0,3,00,00,01,00,00,00,00,00,
109000,00000039,false,Rx,0,2,00,1B,00,00,00,00,00,00,
113000,00000097,false,Rx,0,8,80,20,00,02,03,00,00,27,
114000,00000136,false,Rx,0,8,00,00,00,11,05,00,00,16,
114000,0000013A,false,Rx,0,8,00,00,00,00,00,00,00,19,
115000,0000013F,false,Rx,0,8,01,08,01,05,00,0A,00,1B,
115000,0000017C,false,Rx,0,8,00,00,07,07,48,00,00,19,
116000,0000015A,false,Rx,0,8,00,24,00,00,00,00,00,02,
116000,000001A4,false,Rx,0,8,00,69,00,00,00,00,00,28,
116000,000001AA,false,Rx,0,8,7F,FF,00,00,00,00,69,2E,
116000,000001B0,false,Rx,0,7,80,10,7F,FF,00,00,2D,00,
117000,00000156,false,Rx,0,6,FF,EE,00,01,07,0A,00,00,
117000,000001D0,false,Rx,0,8,30,48,60,84,C1,89,82,C5,
117000,000001E7,false,Rx,0,4,1A,00,68,27,00,00,00,00,
117000,0000030C,false,Rx,0,8,18,B3,1E,46,01,60,90,09,
118000,00000158,false,Rx,0,8,17,B7,06,C1,17,B7,99,01,
118000,00000188,false,Rx,0,6,04,04,80,08,00,78,00,00,
119000,0000018E,false,Rx,0,3,00,06,1A,00,00,00,00,00,
120000,00000039,false,Rx,0,2,00,2A,00,00,00,00,00,00,
123000,00000097,false,Rx,0,8,7F,E0,00,02,06,00,00,39,
0,00000136,false,Rx,0,8,00,00,00,11,05,00,00,25,
0,0000013A,false,Rx,0,8,00,00,00,00,00,00,00,28,
0,0000013F,false,Rx,0,8,01,08,01,05,00,00,00,24,
0,0000017C,false,Rx,0,8,00,00,07,07,48,00,00,28,
0,000001DC,false,Rx,0,4,02,07,07,3B,00,00,00,00,
0,00000305,false,Rx,0,2,0E,02,00,00,00,00,00,00,
0,0000015A,false,Rx,0,8,00,30,00,00,00,00,00,14,
0,000001C0,false,Rx,0,7,00,00,10,00,00,00,0A,00,
127000,00000156,false,Rx,0,6,FF,EE,00,01,07,19,00,00,
127000,000001A6,false,Rx,0,8,02,00,00,4C,57,80,00,01,
127000,00000158,false,Rx,0,8,17,B4,06,C0,17,B4,99,17,
127000,00000188,false,Rx,0,6,04,04,80,08,00,4B,00,00,
129000,0000018E,false,Rx,0,3,00,07,28,00,00,00,00,00,
130000,00000039,false,Rx,0,2,00,39,00,00,00,00,00,00,
132000,00000097,false,Rx,0,8,7F,E0,00,02,07,00,00,0B,
135000,00000136,false,Rx,0,8,00,00,00,11,05,00,00,34,
135000,0000013A,false,Rx,0,8,00,00,00,00,00,00,00,37,
135000,0000013F,false,Rx,0,8,01,09,01,06,FF,D8,00,3E,
135000,0000017C,false,Rx,0,8,00,00,07,03,48,00,00,3B,
0,0000015A,false,Rx,0,8,00,26,00,00,00,00,00,2E,
0,000001A4,false,Rx,0,8,00,68,00,00,00,00,00,38,
136000,000001AA,false,Rx,0,8,7F,FF,00,00,00,00,68,3E,
136000,000001B0,false,Rx,0,7,80,10,7F,FF,00,00,3C,00,
137000,00000156,false,Rx,0,6,FF,EF,00,00,07,28,00,00,
137000,000001D0,false,Rx,0,8,30,20,60,04,C1,51,83,1C,
137000,000001E7,false,Rx,0,4,1A,00,68,36,00,00,00,00,
0,00000158,false,Rx,0,8,17,B5,06,C0,17,B5,99,24,
0,00000188,false,Rx,0,6,04,04,80,08,00,5A,00,00,
138000,0000018E,false,Rx,0,3,00,02,3C,00,00,00,00,00,
142000,00000039,false,Rx,0,2,00,0C,00,00,00,00,00,00,
142000,00000097,false,Rx,0,8,80,20,00,02,09,00,00,12,
0,00000136,false,Rx,0,8,00,00,00,11,05,00,00,07,
0,0000013A,false,Rx,0,8,00,00,00,00,00,00,00,0A,
145000,0000013F,false,Rx,0,8,01,09,01,06,00,00,00,04,
145000,0000017C,false,Rx,0,8,00,00,07,03,48,00,00,0E,
145000,000001DC,false,Rx,0,4,02,07,03,02,00,00,00,00,
146000,0000015A,false,Rx,0,8,00,1E,00,00,00,00,00,36,
146000,000001C0,false,Rx,0,7,00,00,10,00,00,00,19,00,
146000,00000156,false,Rx,0,6,FF,EF,00,01,07,36,00,00,
147000,000001A6,false,Rx,0,8,02,00,00,4C,57,80,00,10,
147000,00000294,false,Rx,0,8,00,15,00,03,FA,C1,20,17,
147000,00000158,false,Rx,0,8,17,B4,06,BF,17,B4,99,37,
147000,00000188,false,Rx,0,6,04,04,80,08,00,69,00,00,
148000,0000018E,false,Rx,0,3,00,00,01,00,00,00,00,00,
0,00000097,false,Rx,0,8,80,20,10,02,06,00,00,23,
0,00000039,false,Rx,0,2,00,1B,00,00,00,00,00,00,
154000,00000136,false,Rx,0,8,00,00,00,11,05,00,00,16,
154000,0000013A,false,Rx,0,8,00,00,00,00,00,00,00,19,
154000,0000013F,false,Rx,0,8,01,09,01,06,00,00,00,13,
154000,0000017C,false,Rx,0,8,00,00,07,03,48,00,00,1D,
0,0000015A,false,Rx,0,8,00,2A,00,00,00,00,00,0C,
0,000001A4,false,Rx,0,8,00,68,00,00,00,00,00,0B,
156000,000001AA,false,Rx,0,8,7F,FF,00,00,00,00,68,01,
156000,000001B0,false,Rx,0,7,80,10,7F,FF,00,00,0F,00,
156000,00000156,false,Rx,0,6,FF,EE,00,01,07,0A,00,00,
156000,000001D0,false,Rx,0,8,30,1A,60,04,C1,89,83,36,
157000,000001E7,false,Rx,0,4,1A,00,68,09,00,00,00,00,
0,00000158,false,Rx,0,8,17,AD,06,BD,17,AD,99,0C,
0,00000188,false,Rx,0,6,04,04,80,08,00,78,00,00,
158000,0000018E,false,Rx,0,3,00,00,10,00,00,00,00,00,
163000,00000097,false,Rx,0,8,80,60,10,02,02,00,00,32,
163000,00000039,false,Rx,0,2,00,2A,00,00,00,00,00,00,
164000,00000136,false,Rx,0,8,00,00,00,11,05,00,00,25,
164000,0000013A,false,Rx,0,8,00,00,00,00,00,00,00,28,
164000,0000013F,false,Rx,0,8,01,0A,01,06,FF,CE,00,29,
164000,0000017C,false,Rx,0,8,00,00,06,FE,48,00,00,23,
164000,000001DC,false,Rx,0,4,02,06,FE,18,00,00,00,00,
165000,0000015A,false,Rx,0,8,00,32,00,00,00,00,00,12,
166000,000001C0,false,Rx,0,7,00,00,10,00,00,00,28,00,
166000,00000156,false,Rx,0,6,FF,EE,00,01,07,19,00,00,
166000,000001A6,false,Rx,0,8,02,00,00,4C,52,80,00,24,
168000,00000309,false,Rx,0,8,18,E3,00,00,00,3F,00,6A,
168000,00000158,false,Rx,0,8,17,A5,06,BA,17,A5,99,1E,
168000,00000188,false,Rx,0,6,04,04,80,08,00,4B,00,00,
168000,00000374,false,Rx,0,7,00,00,00,00,00,00,28,00,
168000,00000377,false,Rx,0,8,18,06,7B,74,AF,00,A2,24,
0,00000378,false,Rx,0,8,08,31,06,13,40,60,00,24,
0,0000018E,false,Rx,0,3,00,0B,24,00,00,00,00,00,
0,00000428,false,Rx,0,7,00,00,00,00,00,00,0A,00,
0,00000405,false,Rx,0,8,00,00,00,00,00,00,00,0F,
173000,00000097,false,Rx,0,8,80,20,10,02,03,00,00,08,
174000,00000136,false,Rx,0,8,00,00,00,11,05,00,00,34,
175000,0000013A,false,Rx,0,8,00,00,00,00,00,00,00,37,
0,0000013F,false,Rx,0,8,01,0A,01,06,00,00,00,30,
0,00000039,false,Rx,0,2,00,39,00,00,00,00,00,00,
175000,0000017C,false,Rx,0,8,00,00,06,FE,48,00,00,32,
176000,0000015A,false,Rx,0,8,00,48,00,00,00,00,00,2A,
176000,000001A4,false,Rx,0,8,00,68,00,00,00,00,00,1A,
176000,000001AA,false,Rx,0,8,7F,FF,00,00,00,00,68,10,
176000,000001B0,false,Rx,0,7,80,10,7F,FF,00,00,1E,00,
177000,00000156,false,Rx,0,6,FF,EF,00,02,07,26,00,00,
177000,000001D0,false,Rx,0,8,2F,F8,60,20,C1,D1,82,32,
177000,000001E7,false,Rx,0,4,1A,00,68,18,00,00,00,00,
0,00000158,false,Rx,0,8,17,9C,06,BA,17,9C,99,21,
0,00000188,false,Rx,0,6,04,04,80,08,00,5A,00,00,
178000,0000018E,false,Rx,0,3,00,05,39,00,00,00,00,00,
183000,00000097,false,Rx,0,8,80,60,10,02,03,00,00,13,
0,00000136,false,Rx,0,8,00,00,00,11,05,00,00,07,
0,0000013A,false,Rx,0,8,00,00,00,00,00,00,00,0A,
184000,0000013F,false,Rx,0,8,01,0A,01,06,FF,F6,00,00,
184000,0000017C,false,Rx,0,8,00,00,06,FD,48,00,00,06,
184000,000001DC,false,Rx,0,4,02,06,FD,28,00,00,00,00,
185000,00000320,false,Rx,0,3,00,00,21,00,00,00,00,00,
185000,00000324,false,Rx,0,8,7C,46,23,78,46,FB,00,28,
0,0000037C,false,Rx,0,8,EC,00,EC,32,00,01,00,26,
0,00000039,false,Rx,0,2,00,0C,00,00,00,00,00,00,
186000,0000015A,false,Rx,0,8,00,48,00,00,00,00,00,39,
186000,000001C0,false,Rx,0,7,00,00,10,00,00,00,37,00,
186000,000003D7,false,Rx,0,8,B0,00,00,00,00,00,00,7F,
186000,00000156,false,Rx,0,6,FF,EE,00,01,07,37,00,00,
187000,000001A6,false,Rx,0,8,02,00,00,4C,51,80,00,34,
187000,00000294,false,Rx,0,8,00,15,00,03,FA,C1,20,26,
187000,00000158,false,Rx,0,8,17,98,06,B7,17,98,99,3B,
187000,00000188,false,Rx,0,6,04,04,80,08,00,69,00,00,
188000,0000018E,false,Rx,0,3,00,06,0B,00,00,00,00,00,
193000,00000097,false,Rx,0,8,80,60,20,02,05,00,00,2F,
0,00000136,false,Rx,0,8,00,00,00,11,04,00,00,17,
0,0000013A,false,Rx,0,8,00,00,00,00,00,00,00,19,
194000,0000013F,false,Rx,0,8,01,0A,00,FB,00,00,00,1F,
0,0000017C,false,Rx,0,8,00,00,06,FD,48,00,00,15,
0,0000033D,false,Rx,0,4,01,40,00,3D,00,00,00,00,
195000,0000015A,false,Rx,0,8,00,5A,00,00,00,00,00,09,
195000,000001A4,false,Rx,0,8,00,68,00,00,00,00,00,29,
195000,000001AA,false,Rx,0,8,7F,FF,00,00,00,00,68,2F,
195000,000001B0,false,Rx,0,7,80,10,7F,FF,00,00,2D,00,
197000,00000156,false,Rx,0,6,FF,EF,00,01,07,09,00,00,
197000,00000039,false,Rx,0,2,00,1B,00,00,00,00,00,00,
197000,000001D0,false,Rx,0,8,30,36,60,5C,C1,29,82,50,
197000,000001E7,false,Rx,0,4,1A,00,68,27,00,00,00,00,
197000,00000158,false,Rx,0,8,17,93,06,B4,17,93,99,0B,
197000,00000188,false,Rx,0,6,04,04,80,08,00,78,00,00,
198000,0000018E,false,Rx,0,3,00,08,18,00,00,00,00,00,
202000,00000097,false,Rx,0,8,80,60,10,02,05,00,00,3F,
204000,00000136,false,Rx,0,8,00,00,00,11,04,00,00,26,
204000,0000013A,false,Rx,0,8,00,00,00,00,00,00,00,28,
204000,0000013F,false,Rx,0,8,01,04,00,FC,FF,CE,00,2B,
204000,0000017C,false,Rx,0,8,00,00,06,F8,48,00,00,29,
204000,000001DC,false,Rx,0,4,02,06,F8,3C,00,00,00,00,
206000,0000015A,false,Rx,0,8,00,66,00,00,00,00,00,1B,
206000,000001C0,false,Rx,0,7,00,00,10,00,00,00,0A,00,
207000,00000156,false,Rx,0,6,FF,EE,00,01,07,19,00,00,
207000,000001A6,false,Rx,0,8,02,00,00,4C,51,80,00,07,
0,00000158,false,Rx,0,8,17,99,06,BA,17,99,99,18,
0,00000188,false,Rx,0,6,04,04,80,08,00,4B,00,00,
0,00000039,false,Rx,0,2,00,2A,00,00,00,00,00,00,
208000,0000018E,false,Rx,0,3,00,05,2A,00,00,00,00,00,
212000,00000097,false,Rx,0,8,80,60,10,02,06,00,00,01,
0,00000136,false,Rx,0,8,00,00,00,11,04,00,00,35,
0,0000013A,false,Rx,0,8,00,00,00,00,00,00,00,37,
0,0000013F,false,Rx,0,8,01,04,00,FC,00,00,00,32,
0,0000017C,false,Rx,0,8,00,00,06,F8,48,00,00,38,
0,0000015A,false,Rx,0,8,00,00,00,00,00,00,00,26,
0,000001A4,false,Rx,0,8,00,68,00,00,00,00,00,38,
216000,000001AA,false,Rx,0,8,7F,FF,00,00,00,00,68,3E,
216000,000001B0,false,Rx,0,7,80,10,7F,FF,00,00,3C,00,
217000,00000156,false,Rx,0,6,FF,EE,00,01,07,28,00,00,
217000,000001D0,false,Rx,0,8,30,88,60,18,C0,F9,82,19,
217000,000001E7,false,Rx,0,4,1A,00,68,36,00,00,00,00,
217000,0000030C,false,Rx,0,8,18,AD,1E,46,01,60,90,1F,
218000,00000158,false,Rx,0,8,17,A0,06,BF,17,A0,99,22,
218000,00000188,false,Rx,0,6,04,04,80,08,00,5A,00,00,
0,0000018E,false,Rx,0,3,00,03,3B,00,00,00,00,00,
0,00000039,false,Rx,0,2,00,39,00,00,00,00,00,00,
223000,00000097,false,Rx,0,8,80,20,10,02,03,00,00,17,
0,00000136,false,Rx,0,8,00,00,00,11,04,00,00,08,
0,0000013A,false,Rx,0,8,00,00,00,00,00,00,00,0A,
0,0000013F,false,Rx,0,8,01,02,00,FC,00,00,00,07,
0,0000017C,false,Rx,0,8,00,00,06,F8,48,00,00,0B,
225000,000001DC,false,Rx,0,4,02,06,F8,0F,00,00,00,00,
226000,0000015A,false,Rx,0,8,00,00,00,00,00,00,00,35,
226000,000001C0,false,Rx,0,7,00,00,10,00,00,00,19,00,
227000,00000156,false,Rx,0,6,FF,EF,00,01,07,36,00,00,
0,000001A6,false,Rx,0,8,02,00,00,54,51,80,00,1D,
0,00000294,false,Rx,0,8,00,15,00,03,FA,C1,20,35,
227000,00000158,false,Rx,0,8,17,A8,06,BE,17,A8,99,32,
227000,00000188,false,Rx,0,6,04,04,80,08,00,69,00,00,
229000,0000018E,false,Rx,0,3,00,00,01,00,00,00,00,00,
0,00000039,false,Rx,0,2,00,0C,00,00,00,00,00,00,
0,00000305,false,Rx,0,2,0E,11,00,00,00,00,00,00,
232000,00000097,false,Rx,0,8,80,20,00,01,FC,00,00,20,
0,00000136,false,Rx,0,8,00,00,00,11,04,00,00,17,
0,0000013A,false,Rx,0,8,00,00,00,00,00,00,00,19,
0,0000013F,false,Rx,0,8,01,03,00,FC,FF,E2,00,17,
0,0000017C,false,Rx,0,8,00,00,06,F5,48,00,00,1D,
236000,0000015A,false,Rx,0,8,00,00,00,00,00,00,00,08,
236000,000001A4,false,Rx,0,8,00,68,00,00,00,00,00,0B,
236000,000001AA,false,Rx,0,8,7F,FF,00,00,00,00,68,01,
237000,000001B0,false,Rx,0,7,80,10,7F,FF,00,00,0F,00,
237000,00000156,false,Rx,0,6,FF,EE,00,00,07,0B,00,00,
237000,000001D0,false,Rx,0,8,30,5C,60,34,C1,61,83,37,
237000,000001E7,false,Rx,0,4,1A,00,68,09,00,00,00,00,
0,00000158,false,Rx,0,8,17,B2,06,C0,17,B2,99,0C,
0,00000188,false,Rx,0,6,04,04,80,08,00,78,00,00,
238000,0000018E,false,Rx,0,3,00,07,19,00,00,00,00,00,
240000,00000039,false,Rx,0,2,00,1B,00,00,00,00,00,00,
243000,00000097,false,Rx,0,8,80,20,00,01,FA,00,00,31,
0,00000136,false,Rx,0,8,00,00,00,11,04,00,00,26,
0,0000013A,false,Rx,0,8,00,00,00,00,00,00,00,28,
245000,0000013F,false,Rx,0,8,01,03,00,FC,00,00,00,24,
245000,0000017C,false,Rx,0,8,00,00,06,F5,48,00,00,2C,
245000,000001DC,false,Rx,0,4,02,06,F5,11,00,00,00,00,
0,0000015A,false,Rx,0,8,00,61,00,00,00,00,00,10,
0,000001C0,false,Rx,0,7,00,00,10,00,00,00,28,00,
246000,00000156,false,Rx,0,6,FF,EE,00,01,07,19,00,00,
247000,000001A6,false,Rx,0,8,02,00,00,54,59,80,00,24,
0,00000158,false,Rx,0,8,17,B7,06,C2,17,B7,99,1F,
0,00000188,false,Rx,0,6,04,04,80,08,00,4B,00,00,
249000,0000018E,false,Rx,0,3,00,00,2F,00,00,00,00,00,
252000,00000039,false,Rx,0,2,00,2A,00,00,00,00,00,00,
253000,00000097,false,Rx,0,8,80,20,00,01,FA,00,00,04,
0,00000136,false,Rx,0,8,00,00,00,11,04,00,00,35,
0,0000013A,false,Rx,0,8,00,00,00,00,00,00,00,37,
0,0000013F,false,Rx,0,8,01,03,00,FC,00,00,00,33,
0,0000017C,false,Rx,0,8,00,00,06,F5,48,00,00,3B,
0,0000015A,false,Rx,0,8,00,59,00,00,00,00,00,28,
0,000001A4,false,Rx,0,8,00,69,00,00,00,00,00,19,
0,000001AA,false,Rx,0,8,7F,FF,00,00,00,00,69,1F,
0,000001B0,false,Rx,0,7,80,10,7F,FF,00,00,1E,00,
0,000001D0,false,Rx,0,8,2F,EE,60,20,C0,F9,82,34,
0,00000156,false,Rx,0,6,FF,EE,00,00,07,29,00,00,
257000,000001E7,false,Rx,0,4,1A,00,68,18,00,00,00,00,
0,00000158,false,Rx,0,8,17,B3,06,BF,17,B3,99,2A,
0,00000188,false,Rx,0,6,04,04,80,08,00,5A,00,00,
258000,0000018E,false,Rx,0,3,00,09,35,00,00,00,00,00,
0,00000097,false,Rx,0,8,80,20,00,01,FA,00,00,13,
0,00000039,false,Rx,0,2,00,39,00,00,00,00,00,00,
0,00000136,false,Rx,0,8,00,00,00,11,04,00,00,08,
0,0000013A,false,Rx,0,8,00,00,00,00,00,00,00,0A,
265000,0000013F,false,Rx,0,8,01,03,00,FB,00,00,00,07,
265000,0000017C,false,Rx,0,8,00,00,06,F5,48,00,00,0E,
265000,000001DC,false,Rx,0,4,02,06,F5,20,00,00,00,00,
266000,0000015A,false,Rx,0,8,00,54,00,00,00,00,00,3C,
266000,000001C0,false,Rx,0,7,00,00,10,00,00,00,37,00,
0,00000156,false,Rx,0,6,FF,EF,00,00,07,37,00,00,
0,000001A6,false,Rx,0,8,02,00,00,54,61,80,00,3A,
267000,00000294,false,Rx,0,8,00,15,00,03,FA,C1,20,08,
267000,00000158,false,Rx,0,8,17,AC,06,BB,17,AC,99,3D,
268000,00000188,false,Rx,0,6,04,04,80,08,00,69,00,00,
268000,00000309,false,Rx,0,8,18,E6,00,00,00,3F,00,76,
268000,00000374,false,Rx,0,7,00,00,00,00,00,00,37,00,
268000,00000377,false,Rx,0,8,18,06,7B,74,AF,00,A2,33,
268000,0000018E,false,Rx,0,3,00,06,0B,00,00,00,00,00,
268000,00000378,false,Rx,0,8,08,31,06,13,40,60,00,33,
272000,00000097,false,Rx,0,8,80,20,00,01,FE,00,00,2E,
274000,00000039,false,Rx,0,2,00,0C,00,00,00,00,00,00,
274000,00000136,false,Rx,0,8,00,00,00,11,04,00,00,17,
274000,0000013A,false,Rx,0,8,00,00,00,00,00,00,00,19,
274000,0000013F,false,Rx,0,8,01,04,00,FC,FF,D8,00,11,
274000,0000017C,false,Rx,0,8,00,00,06,F1,48,00,00,11,
275000,0000015A,false,Rx,0,8,00,00,00,00,00,00,00,08,
275000,000001A4,false,Rx,0,8,00,68,00,00,00,00,00,29,
275000,000001AA,false,Rx,0,8,7F,FF,00,00,00,00,68,2F,
277000,000001B0,false,Rx,0,7,80,10,7F,FF,00,00,2D,00,
0,00000156,false,Rx,0,6,FF,EF,00,04,07,06,00,00,
0,000001D0,false,Rx,0,8,2F,B4,60,44,C1,71,82,3A,
277000,000001E7,false,Rx,0,4,1A,00,68,27,00,00,00,00,
0,00000158,false,Rx,0,8,17,A3,06,B7,17,A3,99,06,
0,00000188,false,Rx,0,6,04,04,80,08,00,78,00,00,
279000,0000018E,false,Rx,0,3,00,08,18,00,00,00,00,00,
283000,00000097,false,Rx,0,8,80,20,00,01,FE,00,00,3D,
0,00000136,false,Rx,0,8,00,00,00,11,04,00,00,26,
0,0000013A,false,Rx,0,8,00,00,00,00,00,00,00,28,
0,0000013F,false,Rx,0,8,01,03,00,FC,00,0A,00,2A,
0,00000039,false,Rx,0,2,00,1B,00,00,00,00,00,00,
285000,0000017C,false,Rx,0,8,00,00,06,F2,48,00,00,2F,
285000,000001DC,false,Rx,0,4,02,06,F2,32,00,00,00,00,
285000,00000320,false,Rx,0,3,00,00,30,00,00,00,00,00,
285000,00000324,false,Rx,0,8,7C,46,23,78,46,02,00,3F,
286000,0000015A,false,Rx,0,8,00,00,FF,BD,00,00,00,11,
286000,000001C0,false,Rx,0,7,00,00,10,00,00,00,0A,00,
286000,0000037C,false,Rx,0,8,E4,00,E4,32,00,01,00,35,
286000,00000156,false,Rx,0,6,FF,EF,00,00,07,19,00,00,
287000,000001A6,false,Rx,0,8,02,00,00,54,4D,80,00,03,
288000,00000158,false,Rx,0,8,17,8D,06,B5,17,8D,99,17,
288000,00000188,false,Rx,0,6,04,04,80,08,00,4B,00,00,
289000,0000018E,false,Rx,0,3,00,0B,24,00,00,00,00,00,
293000,00000097,false,Rx,0,8,7F,E0,00,02,01,00,00,01,
0,00000136,false,Rx,0,8,00,00,00,11,04,00,00,35,
0,0000013A,false,Rx,0,8,00,00,00,00,00,00,00,37,
0,0000013F,false,Rx,0,8,01,03,00,F2,00,00,00,3D,
0,0000017C,false,Rx,0,8,00,00,06,F2,48,00,00,3E,
295000,0000033D,false,Rx,0,4,01,40,00,00,00,00,00,00,
0,0000015A,false,Rx,0,8,00,4B,00,00,00,00,00,27,
0,00000039,false,Rx,0,2,00,2A,00,00,00,00,00,00,
297000,000001A4,false,Rx,0,8,00,68,00,00,00,00,00,38,
297000,000001AA,false,Rx,0,8,7F,FF,00,00,00,00,68,3E,
297000,000001B0,false,Rx,0,7,80,10,7F,FF,00,00,3C,00,
297000,00000156,false,Rx,0,6,FF,EF,00,00,07,28,00,00,
297000,000001D0,false,Rx,0,8,30,06,60,20,C1,D1,81,C9,
297000,000001E7,false,Rx,0,4,1A,00,68,36,00,00,00,00,
0,00000158,false,Rx,0,8,17,8A,06,B4,17,8A,99,2D,
0,00000188,false,Rx,0,6,04,04,80,08,00,5A,00,00,
298000,0000018E,false,Rx,0,3,00,03,3B,00,00,00,00,00,
302000,00000097,false,Rx,0,8,80,20,00,02,03,00,00,18,
304000,00000136,false,Rx,0,8,00,00,00,11,04,00,00,08,
304000,0000013A,false,Rx,0,8,00,00,00,00,00,00,00,0A,
304000,0000013F,false,Rx,0,8,01,05,00,F2,FF,CE,00,06,
305000,0000017C,false,Rx,0,8,00,00,06,ED,48,00,00,07,
305000,000001DC,false,Rx,0,4,02,06,ED,0B,00,00,00,00,
305000,0000015A,false,Rx,0,8,00,38,00,00,00,00,00,3A,
306000,000001C0,false,Rx,0,7,00,00,10,00,00,00,19,00,
0,00000156,false,Rx,0,6,FF,EF,00,01,07,36,00,00,
0,00000039,false,Rx,0,2,00,39,00,00,00,00,00,00,
306000,000001A6,false,Rx,0,8,02,00,00,54,49,80,00,16,
306000,00000294,false,Rx,0,8,00,15,00,03,FA,C1,20,17,
308000,00000158,false,Rx,0,8,17,8D,06,B6,17,8D,99,34,
308000,00000188,false,Rx,0,6,04,04,80,08,00,69,00,00,
308000,0000018E,false,Rx,0,3,00,07,0A,00,00,00,00,00,
313000,00000097,false,Rx,0,8,7F,E0,00,02,01,00,00,2F,
314000,00000136,false,Rx,0,8,00,00,00,11,04,00,00,17,
314000,0000013A,false,Rx,0,8,00,00,00,00,00,00,00,19,
314000,0000013F,false,Rx,0,8,01,05,00,F2,00,00,00,1D,
315000,0000017C,false,Rx,0,8,00,00,06,ED,48,00,00,16,
0,0000015A,false,Rx,0,8,00,3B,00,00,00,00,00,0A,
0,000001A4,false,Rx,0,8,00,68,00,00,00,00,00,0B,
316000,000001AA,false,Rx,0,8,7F,FF,00,00,00,00,68,01,
316000,000001B0,false,Rx,0,7,80,10,7F,FF,00,00,0F,00,
316000,00000156,false,Rx,0,6,FF,F0,00,07,07,01,00,00,
316000,000001D0,false,Rx,0,8,30,B0,60,40,C0,F9,81,14,
317000,000001E7,false,Rx,0,4,1A,00,68,09,00,00,00,00,
317000,0000030C,false,Rx,0,8,18,A7,1C,46,01,60,90,26,
317000,00000158,false,Rx,0,8,17,95,06,BA,17,95,99,01,
317000,00000188,false,Rx,0,6,04,04,80,08,00,78,00,00,
317000,00000039,false,Rx,0,2,00,0C,00,00,00,00,00,00,
317000,0000018E,false,Rx,0,3,00,06,1A,00,00,00,00,00,
323000,00000097,false,Rx,0,8,7F,DF,F0,01,FC,00,00,38,
0,00000136,false,Rx,0,8,00,00,00,11,04,00,00,26,
0,0000013A,false,Rx,0,8,00,00,00,00,00,00,00,28,
325000,0000013F,false,Rx,0,8,01,05,00,F2,00,00,00,2C,
0,0000017C,false,Rx,0,8,00,00,06,ED,48,00,00,25,
0,000001DC,false,Rx,0,4,02,06,ED,1A,00,00,00,00,
0,0000015A,false,Rx,0,8,00,2C,FF,BD,00,00,00,13,
0,000001C0,false,Rx,0,7,00,00,10,00,00,00,28,00,
327000,00000156,false,Rx,0,6,FF,F1,00,09,07,1D,00,00,
327000,000001A6,false,Rx,0,8,02,00,00,58,56,80,00,23,
0,00000158,false,Rx,0,8,17,B0,06,BF,17,B0,99,11,
0,00000188,false,Rx,0,6,04,04,80,08,00,4B,00,00,
329000,0000018E,false,Rx,0,3,00,0B,24,00,00,00,00,00,
329000,00000039,false,Rx,0,2,00,1B,00,00,00,00,00,00,
333000,00000097,false,Rx,0,8,7F,9F,F0,01,F8,00,00,03,
334000,00000136,false,Rx,0,8,00,00,00,11,04,00,00,35,
334000,0000013A,false,Rx,0,8,00,00,00,00,00,00,00,37,
335000,0000013F,false,Rx,0,8,01,05,00,F2,FF,D8,00,38,
335000,0000017C,false,Rx,0,8,00,00,06,E9,48,00,00,38,
335000,00000305,false,Rx,0,2,0E,20,00,00,00,00,00,00,
0,0000015A,false,Rx,0,8,00,21,FF,BD,00,00,00,2D,
0,000001A4,false,Rx,0,8,00,68,00,00,00,00,00,1A,
336000,000001AA,false,Rx,0,8,7F,FF,00,00,00,00,68,10,
336000,000001B0,false,Rx,0,7,80,10,7F,FF,00,00,1E,00,
336000,00000156,false,Rx,0,6,FF,F2,00,0C,07,28,00,00,
336000,000001D0,false,Rx,0,8,30,7E,60,20,C0,41,81,6A,
336000,000001E7,false,Rx,0,4,1A,00,68,18,00,00,00,00,
0,00000158,false,Rx,0,8,17,B2,06,C1,17,B2,99,29,
0,00000188,false,Rx,0,6,04,04,80,08,00,5A,00,00,
339000,0000018E,false,Rx,0,3,00,09,35,00,00,00,00,00,
340000,00000039,false,Rx,0,2,00,2A,00,00,00,00,00,00,
342000,00000097,false,Rx,0,8,7F,9F,F0,01,F9,00,00,11,
0,00000136,false,Rx,0,8,00,00,00,11,04,00,00,08,
0,0000013A,false,Rx,0,8,00,00,00,00,00,00,00,0A,
0,0000013F,false,Rx,0,8,01,05,00,F2,00,00,00,0E,
0,0000017C,false,Rx,0,8,00,00,06,E9,48,00,00,0B,
345000,000001DC,false,Rx,0,4,02,06,E9,2D,00,00,00,00,
0,0000015A,false,Rx,0,8,00,00,FF,BD,00,00,00,3F,
0,000001C0,false,Rx,0,7,00,00,10,00,00,00,37,00,
347000,00000156,false,Rx,0,6,FF,F3,00,0F,07,33,00,00,
347000,000001A6,false,Rx,0,8,02,00,00,58,45,80,00,34,
347000,00000294,false,Rx,0,8,00,15,00,03,FA,C1,20,26,
348000,00000158,false,Rx,0,8,17,B0,06,BE,17,B0,99,30,
348000,00000188,false,Rx,0,6,04,04,80,08,00,69,00,00,
349000,0000018E,false,Rx,0,3,00,03,0E,00,00,00,00,00,
351000,00000039,false,Rx,0,2,00,39,00,00,00,00,00,00,
353000,00000097,false,Rx,0,8,7F,9F,F0,01,FF,00,00,2A,
0,00000136,false,Rx,0,8,00,00,00,11,04,00,00,17,
0,0000013A,false,Rx,0,8,00,00,00,00,00,00,00,19,
354000,0000013F,false,Rx,0,8,01,05,00,F2,00,00,00,1D,
354000,0000017C,false,Rx,0,8,00,00,06,E9,48,00,00,1A,
0,0000015A,false,Rx,0,8,00,00,FF,BD,00,00,00,02,
0,000001A4,false,Rx,0,8,00,68,00,00,00,00,00,29,
0,000001AA,false,Rx,0,8,7F,FF,00,00,00,00,68,2F,
0,000001B0,false,Rx,0,7,7F,D0,7F,FF,00,00,23,00,
356000,00000156,false,Rx,0,6,FF,F5,00,11,07,01,00,00,
356000,000001D0,false,Rx,0,8,2F,DA,60,54,C0,21,83,54,
0,000001E7,false,Rx,0,4,1A,00,68,27,00,00,00,00,
0,00000406,false,Rx,0,5,00,00,00,01,2B,00,00,00,
356000,00000158,false,Rx,0,8,17,AD,06,BB,17,AD,99,0E,
356000,00000188,false,Rx,0,6,04,04,80,08,00,78,00,00,
358000,0000018E,false,Rx,0,3,00,01,1F,00,00,00,00,00,
361000,00000039,false,Rx,0,2,00,0C,00,00,00,00,00,00,
362000,00000097,false,Rx,0,8,7F,E0,00,02,00,00,00,3F,
365000,00000136,false,Rx,0,8,00,00,00,11,04,00,00,26,
365000,0000013A,false,Rx,0,8,00,00,00,00,00,00,00,28,
365000,0000013F,false,Rx,0,8,01,05,00,F2,00,00,00,2C,
365000,0000017C,false,Rx,0,8,00,00,06,E9,48,00,00,29,
365000,000001DC,false,Rx,0,4,02,06,E9,3C,00,00,00,00,
0,0000015A,false,Rx,0,8,00,00,FF,BD,00,00,00,11,
0,000001C0,false,Rx,0,7,00,00,10,00,00,00,0A,00,
0,00000421,false,Rx,0,5,00,00,00,01,3D,00,00,00,
0,00000156,false,Rx,0,6,FF,F6,00,09,07,18,00,00,
367000,000001A6,false,Rx,0,8,02,00,00,58,46,80,00,06,
367000,00000309,false,Rx,0,8,18,DF,00,00,00,3F,00,41,
368000,00000158,false,Rx,0,8,17,A5,06,B8,17,A5,99,10,
368000,00000188,false,Rx,0,6,04,04,80,08,00,4B,00,00,
368000,00000374,false,Rx,0,7,00,00,00,00,00,00,0A,00,
368000,00000377,false,Rx,0,8,18,06,7B,74,AF,00,A2,06,
368000,00000378,false,Rx,0,8,08,31,06,13,40,60,00,06,
369000,0000018E,false,Rx,0,3,00,10,2E,00,00,00,00,00,
0,00000097,false,Rx,0,8,7F,E0,00,02,00,00,00,02,
0,00000039,false,Rx,0,2,00,1B,00,00,00,00,00,00,
0,00000136,false,Rx,0,8,00,00,00,10,04,00,00,36,
0,0000013A,false,Rx,0,8,00,00,00,00,00,00,00,37,
374000,0000013F,false,Rx,0,8,00,FD,00,F3,FF,D8,00,31,
375000,0000017C,false,Rx,0,8,00,00,06,E5,48,00,00,3C,
0,0000015A,false,Rx,0,8,00,00,FF,BD,00,00,00,20,
0,000001A4,false,Rx,0,8,00,68,00,00,00,00,00,38,
376000,000001AA,false,Rx,0,8,7F,FF,00,00,00,00,68,3E,
376000,000001B0,false,Rx,0,7,80,10,7F,FF,00,00,3C,00,
376000,00000156,false,Rx,0,6,FF,F6,00,06,07,2A,00,00,
376000,000001D0,false,Rx,0,8,2F,B8,60,0C,C0,31,82,82,
377000,000001E7,false,Rx,0,4,1A,00,68,36,00,00,00,00,
377000,00000158,false,Rx,0,8,17,97,06,B6,17,97,99,2F,
377000,00000188,false,Rx,0,6,04,04,80,08,00,5A,00,00,
378000,0000018E,false,Rx,0,3,00,0D,31,00,00,00,00,00,
383000,00000097,false,Rx,0,8,7F,E0,00,02,00,00,00,11,
384000,00000039,false,Rx,0,2,00,2A,00,00,00,00,00,00,
384000,00000136,false,Rx,0,8,00,00,00,10,04,00,00,09,
384000,0000013A,false,Rx,0,8,00,00,00,00,00,00,00,0A,
384000,0000013F,false,Rx,0,8,00,FF,00,F3,00,14,00,00,
384000,0000017C,false,Rx,0,8,00,00,06,E7,48,00,00,0D,
384000,000001DC,false,Rx,0,4,02,06,E7,01,00,00,00,00,
385000,00000320,false,Rx,0,3,00,00,03,00,00,00,00,00,
385000,00000324,false,Rx,0,8,7C,46,23,79,46,05,00,0E,
385000,0000037C,false,Rx,0,8,E2,00,E2,32,00,01,00,0C,
385000,0000015A,false,Rx,0,8,00,00,FF,BD,00,00,00,3F,
386000,000001C0,false,Rx,0,7,00,00,10,00,00,00,19,00,
386000,000003D7,false,Rx,0,8,B0,C1,04,00,00,00,00,05,
386000,00000400,false,Rx,0,5,00,00,00,00,04,00,00,00,
386000,00000156,false,Rx,0,6,FF,F6,00,01,07,3E,00,00,
388000,0000040C,false,Rx,0,8,4F,00,00,00,00,00,00,05,
388000,000001A6,false,Rx,0,8,02,00,00,58,3F,80,00,1D,
388000,00000158,false,Rx,0,8,17,91,06,B7,17,91,99,39,
388000,00000188,false,Rx,0,6,04,04,80,08,00,69,00,00,
388000,00000294,false,Rx,0,8,00,15,00,03,FA,C1,20,35,
388000,00000454,false,Rx,0,6,37,F5,02,29,90,07,00,00,
389000,00000465,false,Rx,0,7,FF,FF,FF,FF,FF,FF,05,00,
389000,0000018E,false,Rx,0,3,00,05,0C,00,00,00,00,00,
389000,000006C1,false,Rx,0,1,32,00,00,00,00,00,00,00,
393000,00000097,false,Rx,0,8,7F,E0,00,02,08,00,00,28,
0,00000136,false,Rx,0,8,00,00,00,10,04,00,00,18,
0,0000013A,false,Rx,0,8,00,00,00,00,00,00,00,19,
394000,0000013F,false,Rx,0,8,00,FD,00,EB,00,00,00,1F,
395000,00000039,false,Rx,0,2,00,39,00,00,00,00,00,00,
395000,0000017C,false,Rx,0,8,00,00,06,E7,48,00,00,1C,
395000,0000033D,false,Rx,0,4,01,40,00,1F,00,00,00,00,
396000,0000015A,false,Rx,0,8,00,00,FF,BD,00,00,00,02,
0,000001A4,false,Rx,0,8,00,68,00,00,00,00,00,0B,
0,000001AA,false,Rx,0,8,7F,FF,00,00,00,00,68,01,
396000,000001B0,false,Rx,0,7,80,10,7F,FF,00,00,0F,00,
396000,00000156,false,Rx,0,6,FF,F6,00,01,07,01,00,00,
397000,000001D0,false,Rx,0,8,30,2A,60,48,C2,19,81,17,
397000,000001E7,false,Rx,0,4,1A,00,68,09,00,00,00,00,
397000,00000158,false,Rx,0,8,17,8C,06,B5,17,8C,99,0A,
397000,00000188,false,Rx,0,6,04,04,80,08,00,78,00,00,
399000,0000018E,false,Rx,0,3,00,0F,11,00,00,00,00,00,
403000,00000097,false,Rx,0,8,7F,9F,E0,01,FB,00,00,3E,
0,00000136,false,Rx,0,8,00,00,00,10,04,00,00,27,
0,0000013A,false,Rx,0,8,00,00,00,00,00,00,00,28,
0,0000013F,false,Rx,0,8,00,FE,00,EB,FF,D8,00,2A,
0,0000017C,false,Rx,0,8,00,00,06,E3,48,00,00,2F,
0,000001DC,false,Rx,0,4,02,06,E3,14,00,00,00,00,
0,0000015A,false,Rx,0,8,00,00,FF,BD,00,00,00,11,
0,00000039,false,Rx,0,2,00,0C,00,00,00,00,00,00,
406000,000001C0,false,Rx,0,7,00,00,10,00,00,00,28,00,
406000,00000156,false,Rx,0,6,FF,F6,00,01,07,10,00,00,
408000,000001A6,false,Rx,0,8,02,00,00,58,41,80,00,29,
408000,00000158,false,Rx,0,8,17,8D,06,B3,17,8D,99,19,
408000,00000188,false,Rx,0,6,04,04,80,08,00,4B,00,00,
409000,0000018E,false,Rx,0,3,00,12,2C,00,00,00,00,00,
413000,00000097,false,Rx,0,8,7F,9F,E0,01,EA,00,00,03,
414000,00000136,false,Rx,0,8,00,00,00,10,04,00,00,36,
414000,0000013A,false,Rx,0,8,00,00,00,00,00,00,00,37,
415000,0000013F,false,Rx,0,8,00,FE,00,EB,00,00,00,3C,
415000,0000017C,false,Rx,0,8,00,00,06,E3,48,00,00,3E,
0,0000015A,false,Rx,0,8,00,00,FF,BD,00,00,00,20,
0,000001A4,false,Rx,0,8,00,69,00,00,00,00,00,19,
0,000001AA,false,Rx,0,8,7F,FF,00,00,00,00,69,1F,
0,000001B0,false,Rx,0,7,7F,D0,7F,FF,00,00,14,00,
0,00000156,false,Rx,0,6,FF,F7,00,06,07,29,00,00,
0,00000039,false,Rx,0,2,00,1B,00,00,00,00,00,00,
417000,000001D0,false,Rx,0,8,30,5A,5F,8C,C2,19,81,69,
417000,000001E7,false,Rx,0,4,1A,00,68,18,00,00,00,00,
0,0000030C,false,Rx,0,8,18,A0,1A,46,01,60,90,3E,
0,00000158,false,Rx,0,8,17,93,06,B8,17,93,99,25,
0,00000188,false,Rx,0,6,04,04,80,08,00,5A,00,00,
418000,0000018E,false,Rx,0,3,00,0D,31,00,00,00,00,00,
423000,00000097,false,Rx,0,8,7F,DF,F0,01,F5,00,00,11,
423000,00000136,false,Rx,0,8,00,00,00,10,04,00,00,09,
425000,0000013A,false,Rx,0,8,00,00,00,00,00,00,00,0A,
425000,0000013F,false,Rx,0,8,00,FE,00,EC,FF,EC,00,06,
425000,0000017C,false,Rx,0,8,00,00,06,E1,48,00,00,03,
425000,000001DC,false,Rx,0,4,02,06,E1,25,00,00,00,00,
0,0000015A,false,Rx,0,8,00,00,00,00,00,00,00,35,
0,000001C0,false,Rx,0,7,00,00,10,00,00,00,37,00,
427000,00000156,false,Rx,0,6,FF,FC,00,22,07,35,00,00,
427000,000001A6,false,Rx,0,8,02,00,00,5F,3F,80,00,34,
427000,00000294,false,Rx,0,8,00,15,00,03,FA,C1,20,08,
428000,00000158,false,Rx,0,8,17,9B,06,BD,17,9B,99,3F,
428000,00000188,false,Rx,0,6,04,04,80,08,00,69,00,00,
428000,00000039,false,Rx,0,2,00,2A,00,00,00,00,00,00,
428000,0000018E,false,Rx,0,3,00,11,0F,00,00,00,00,00,
432000,00000097,false,Rx,0,8,7F,E0,00,01,FB,00,00,27,
433000,00000136,false,Rx,0,8,00,00,00,10,04,00,00,18,
435000,0000013A,false,Rx,0,8,00,00,00,00,00,00,00,19,
435000,0000013F,false,Rx,0,8,00,FE,00,EC,00,00,00,1D,
435000,0000017C,false,Rx,0,8,00,00,06,E1,48,00,00,12,
436000,0000015A,false,Rx,0,8,00,00,00,00,00,00,00,08,
436000,000001A4,false,Rx,0,8,00,68,00,00,00,00,00,29,
436000,000001AA,false,Rx,0,8,7F,FF,00,00,00,00,68,2F,
436000,000001B0,false,Rx,0,7,80,10,7F,FF,00,00,2D,00,
436000,00000156,false,Rx,0,6,00,01,00,2D,07,05,00,00,
437000,000001D0,false,Rx,0,8,30,34,61,6C,BF,D9,80,4B,
437000,000001E7,false,Rx,0,4,1A,00,68,27,00,00,00,00,
0,00000158,false,Rx,0,8,17,A4,06,BB,17,A4,99,00,
0,00000188,false,Rx,0,6,04,04,80,08,00,78,00,00,
438000,0000018E,false,Rx,0,3,00,12,1D,00,00,00,00,00,
438000,00000039,false,Rx,0,2,00,39,00,00,00,00,00,00,
438000,00000305,false,Rx,0,2,0E,3F,00,00,00,00,00,00,
442000,00000097,false,Rx,0,8,80,20,00,02,02,00,00,37,
0,00000136,false,Rx,0,8,00,00,00,10,04,00,00,27,
0,0000013A,false,Rx,0,8,00,00,00,00,00,00,00,28,
445000,0000013F,false,Rx,0,8,00,FF,00,EC,FF,E2,00,2D,
445000,0000017C,false,Rx,0,8,00,00,06,DE,48,00,00,25,
445000,000001DC,false,Rx,0,4,02,06,DE,38,00,00,00,00,
446000,0000015A,false,Rx,0,8,00,00,FF,BD,00,00,00,11,
446000,000001C0,false,Rx,0,7,00,00,10,00,00,00,0A,00,
0,00000156,false,Rx,0,6,00,05,00,29,07,14,00,00,
0,000001A6,false,Rx,0,8,02,00,00,5F,45,80,00,00,
0,00000158,false,Rx,0,8,17,AD,06,C1,17,AD,99,16,
0,00000188,false,Rx,0,6,04,04,80,08,00,4B,00,00,
448000,0000018E,false,Rx,0,3,00,19,25,00,00,00,00,00,
449000,00000039,false,Rx,0,2,00,0C,00,00,00,00,00,00,
453000,00000097,false,Rx,0,8,80,20,00,01,FE,00,00,00,
0,00000136,false,Rx,0,8,00,00,00,10,04,00,00,36,
0,0000013A,false,Rx,0,8,00,00,00,00,00,00,00,37,
0,0000013F,false,Rx,0,8,00,FF,00,EC,00,0A,00,30,
0,0000017C,false,Rx,0,8,00,00,06,DF,48,00,00,33,
455000,0000015A,false,Rx,0,8,00,00,FF,BD,00,00,00,20,
456000,000001A4,false,Rx,0,8,00,68,00,00,00,00,00,38,
456000,000001AA,false,Rx,0,8,7F,FF,00,00,00,00,68,3E,
456000,000001B0,false,Rx,0,7,80,10,7F,FF,00,00,3C,00,
456000,00000156,false,Rx,0,6,00,08,00,22,07,27,00,00,
456000,000001D0,false,Rx,0,8,30,06,60,68,C0,31,82,30,
456000,000001E7,false,Rx,0,4,1A,00,68,36,00,00,00,00,
0,00000158,false,Rx,0,8,17,BF,06,C6,17,BF,99,2A,
0,00000188,false,Rx,0,6,04,04,80,08,00,5A,00,00,
458000,0000018E,false,Rx,0,3,00,2A,32,00,00,00,00,00,
460000,00000039,false,Rx,0,2,00,1B,00,00,00,00,00,00,
463000,00000097,false,Rx,0,8,80,20,10,01,FE,00,00,1E,
464000,00000136,false,Rx,0,8,00,00,00,10,04,00,00,09,
464000,0000013A,false,Rx,0,8,00,00,00,00,00,00,00,0A,
464000,0000013F,false,Rx,0,8,00,FF,00,EC,00,00,00,0D,
464000,0000017C,false,Rx,0,8,00,00,06,DF,48,00,00,06,
465000,000001DC,false,Rx,0,4,02,06,DF,0A,00,00,00,00,
465000,0000015A,false,Rx,0,8,00,00,FF,79,00,00,00,37,
465000,000001C0,false,Rx,0,7,00,00,10,00,00,00,19,00,
467000,00000156,false,Rx,0,6,00,0B,00,20,07,35,00,00,
0,000001A6,false,Rx,0,8,02,00,00,5F,45,80,00,1F,
0,00000294,false,Rx,0,8,00,15,00,03,FA,C1,20,17,
468000,00000158,false,Rx,0,8,17,C7,06,C4,17,C7,99,39,
468000,00000188,false,Rx,0,6,04,04,80,08,00,69,00,00,
468000,00000309,false,Rx,0,8,18,DC,00,00,00,3F,00,53,
0,00000374,false,Rx,0,7,00,00,00,00,00,00,19,00,
0,00000377,false,Rx,0,8,18,06,7B,74,AF,00,A2,15,
0,0000018E,false,Rx,0,3,00,1D,03,00,00,00,00,00,
469000,00000405,false,Rx,0,8,00,00,00,00,00,00,00,1E,
469000,00000378,false,Rx,0,8,08,31,06,13,40,60,00,15,
469000,00000428,false,Rx,0,7,00,00,00,00,00,00,19,00,
472000,00000039,false,Rx,0,2,00,2A,00,00,00,00,00,00,
473000,00000097,false,Rx,0,8,80,60,10,01,FE,00,00,29,
0,00000136,false,Rx,0,8,00,00,00,10,04,00,00,18,
0,0000013A,false,Rx,0,8,00,00,00,00,00,00,00,19,
474000,0000013F,false,Rx,0,8,00,EE,00,EC,FF,D8,00,1B,
474000,0000017C,false,Rx,0,8,00,00,06,DB,48,00,00,19,
475000,0000015A,false,Rx,0,8,00,00,FF,BD,00,00,00,02,
476000,000001A4,false,Rx,0,8,00,68,00,00,00,00,00,0B,
0,000001AA,false,Rx,0,8,7F,FF,00,00,00,00,68,01,
0,000001B0,false,Rx,0,7,80,10,7F,FF,00,00,0F,00,
476000,00000156,false,Rx,0,6,00,0D,00,16,07,01,00,00,
476000,000001D0,false,Rx,0,8,30,20,5F,D4,C2,01,82,52,
477000,000001E7,false,Rx,0,4,1A,00,68,09,00,00,00,00,
0,00000158,false,Rx,0,8,17,BF,06,BD,17,BF,99,06,
0,00000188,false,Rx,0,6,04,04,80,08,00,78,00,00,
478000,0000018E,false,Rx,0,3,00,11,1E,00,00,00,00,00,
0,00000097,false,Rx,0,8,80,60,10,01,FD,00,00,39,
0,00000039,false,Rx,0,2,00,39,00,00,00,00,00,00,
0,00000136,false,Rx,0,8,00,00,00,10,04,00,00,27,
0,0000013A,false,Rx,0,8,00,00,00,00,00,00,00,28,
484000,0000013F,false,Rx,0,8,00,F7,00,EC,00,00,00,23,
485000,0000017C,false,Rx,0,8,00,00,06,DB,48,00,00,28,
0,000001DC,false,Rx,0,4,02,06,DB,1D,00,00,00,00,
0,00000320,false,Rx,0,3,00,00,12,00,00,00,00,00,
485000,00000324,false,Rx,0,8,7C,46,23,7A,46,07,00,1A,
485000,0000037C,false,Rx,0,8,E1,00,E1,32,00,01,00,1D,
486000,0000015A,false,Rx,0,8,00,00,FF,BD,00,00,00,11,
486000,000001C0,false,Rx,0,7,00,00,10,00,00,00,28,00,
486000,00000156,false,Rx,0,6,00,0F,00,13,07,11,00,00,
487000,000001A6,false,Rx,0,8,02,00,00,5F,4A,80,00,29,
487000,00000158,false,Rx,0,8,17,AB,06,B8,17,AB,99,14,
487000,00000188,false,Rx,0,6,04,04,80,08,00,4B,00,00,
488000,0000018E,false,Rx,0,3,00,08,27,00,00,00,00,00,
493000,00000097,false,Rx,0,8,80,60,10,01,FC,00,00,0D,
493000,00000039,false,Rx,0,2,00,0C,00,00,00,00,00,00,
0,00000136,false,Rx,0,8,00,00,00,10,03,00,00,37,
0,0000013A,false,Rx,0,8,00,00,00,00,00,00,00,37,
495000,0000013F,false,Rx,0,8,00,F7,00,DE,00,00,00,31,
495000,0000017C,false,Rx,0,8,00,00,06,DB,48,00,00,37,
495000,0000033D,false,Rx,0,4,01,40,00,2E,00,00,00,00,
495000,0000015A,false,Rx,0,8,00,00,00,00,00,00,00,26,
496000,000001A4,false,Rx,0,8,00,68,00,00,00,00,00,1A,
496000,000001AA,false,Rx,0,8,7F,FF,00,00,00,00,68,10,
496000,000001B0,false,Rx,0,7,80,10,7F,FF,00,00,1E,00,
496000,00000156,false,Rx,0,6,00,11,00,18,07,28,00,00,
496000,000001D0,false,Rx,0,8,30,2E,5E,F4,C1,E1,83,CE,
497000,000001E7,false,Rx,0,4,1A,00,68,18,00,00,00,00,
497000,00000158,false,Rx,0,8,17,91,06,B0,17,91,99,21,
497000,00000188,false,Rx,0,6,04,04,80,08,00,5A,00,00,
498000,0000018E,false,Rx,0,3,00,07,37,00,00,00,00,00,
503000,00000097,false,Rx,0,8,80,A0,20,01,FB,00,00,18,
0,00000136,false,Rx,0,8,00,00,00,10,03,00,00,0A,
0,0000013A,false,Rx,0,8,00,00,00,00,00,00,00,0A,
0,0000013F,false,Rx,0,8,00,F8,00,DF,FF,D8,00,0F,
0,00000039,false,Rx,0,2,00,1B,00,00,00,00,00,00,
0,0000017C,false,Rx,0,8,00,00,06,D7,48,00,00,0E,
0,000001DC,false,Rx,0,4,02,06,D7,20,00,00,00,00,
0,0000015A,false,Rx,0,8,00,00,00,00,00,00,00,35,
0,000001C0,false,Rx,0,7,00,00,10,00,00,00,37,00,
507000,00000156,false,Rx,0,6,00,14,00,1E,07,3E,00,00,
507000,000001A6,false,Rx,0,8,02,00,00,5F,4E,80,00,34,
507000,00000294,false,Rx,0,8,00,15,00,03,FA,C1,20,26,
507000,00000158,false,Rx,0,8,17,72,06,AC,17,72,99,37,
508000,00000188,false,Rx,0,6,04,04,80,08,00,69,00,00,
508000,0000018E,false,Rx,0,3,00,08,09,00,00,00,00,00,
512000,00000097,false,Rx,0,8,80,A0,20,01,F9,00,00,29,
515000,00000136,false,Rx,0,8,00,00,00,10,03,00,00,19,
515000,0000013A,false,Rx,0,8,00,00,00,00,00,00,00,19,
515000,0000013F,false,Rx,0,8,00,F8,00,DF,00,00,00,11,
515000,0000017C,false,Rx,0,8,00,00,06,D7,48,00,00,1D,
0,0000015A,false,Rx,0,8,FF,ED,00,00,00,00,00,0F,
0,00000039,false,Rx,0,2,00,2A,00,00,00,00,00,00,
516000,000001A4,false,Rx,0,8,00,69,00,00,00,00,00,28,
517000,000001AA,false,Rx,0,8,7F,FF,00,00,00,00,69,2E,
517000,000001B0,false,Rx,0,7,80,50,7F,FF,00,00,29,00,
517000,00000156,false,Rx,0,6,00,18,00,21,07,09,00,00,
517000,000001D0,false,Rx,0,8,30,20,60,CC,C1,41,82,1A,
517000,000001E7,false,Rx,0,4,1A,00,68,27,00,00,00,00,
518000,0000030C,false,Rx,0,8,18,99,1A,46,01,60,90,09,
0,00000158,false,Rx,0,8,17,77,06,AF,17,77,99,0D,
0,00000188,false,Rx,0,6,04,04,80,08,00,78,00,00,
519000,0000018E,false,Rx,0,3,00,02,1E,00,00,00,00,00,
523000,00000097,false,Rx,0,8,80,A0,30,01,FD,00,00,33,
0,00000136,false,Rx,0,8,00,00,00,10,03,00,00,28,
0,0000013A,false,Rx,0,8,00,00,00,00,00,00,00,28,
524000,0000013F,false,Rx,0,8,00,F8,00,DF,00,00,00,20,
524000,0000017C,false,Rx,0,8,00,00,06,D7,48,00,00,2C,
