Time Stamp,ID,Extended,Dir,Bus,LEN,D1,D2,D3,D4,D5,D6,D7,D8
0,000001AA,false,Rx,0,8,7F,FF,00,00,00,00,68,10,
0,000001B0,false,Rx,0,7,80,10,7F,FF,00,00,1E,00,
127000,000001D0,false,Rx,0,8,24,62,48,C4,91,B9,23,0D,
127000,000001DC,false,Rx,0,4,02,05,62,3C,00,00,00,00,
127000,000001E7,false,Rx,0,4,1A,00,68,18,00,00,00,00,
129000,00000156,false,Rx,0,6,00,01,00,02,07,3F,00,00,
129000,000001C0,false,Rx,0,7,00,00,10,00,00,00,28,00,
129000,000001A6,false,Rx,0,8,02,00,00,4C,5F,80,00,27,
0,00000097,false,Rx,0,8,80,60,10,01,FC,00,00,0D,
0,00000039,false,Rx,0,2,00,1B,00,00,00,00,00,00,
133000,00000158,false,Rx,0,8,11,E2,05,1A,11,E2,BD,2C,
133000,00000188,false,Rx,0,6,04,04,80,08,00,5A,00,00,
0,0000018E,false,Rx,0,3,00,04,2B,00,00,00,00,00,
0,00000136,false,Rx,0,8,00,00,00,18,0B,00,00,37,
0,0000013A,false,Rx,0,8,00,00,00,00,00,00,00,37,
0,0000013F,false,Rx,0,8,02,2F,02,27,00,00,00,34,
0,0000015A,false,Rx,0,8,FF,F8,00,00,00,00,00,30,
135000,0000017C,false,Rx,0,8,00,00,05,62,48,00,00,38,
139000,00000156,false,Rx,0,6,00,02,00,01,07,02,00,00,
0,00000097,false,Rx,0,8,80,60,20,01,FD,00,00,1A,
0,00000039,false,Rx,0,2,00,2A,00,00,00,00,00,00,
0,00000158,false,Rx,0,8,11,E3,05,19,11,E3,BD,3A,
0,00000188,false,Rx,0,6,04,04,80,08,00,69,00,00,
145000,0000018E,false,Rx,0,3,00,01,3D,00,00,00,00,00,
145000,00000136,false,Rx,0,8,00,00,00,18,0B,00,00,0A,
146000,0000013A,false,Rx,0,8,00,00,00,00,00,00,00,0A,
146000,0000013F,false,Rx,0,8,02,33,02,27,00,00,00,02,
146000,0000015A,false,Rx,0,8,00,00,00,00,00,00,00,08,
146000,0000017C,false,Rx,0,8,00,00,05,62,48,00,00,0B,
147000,000001A4,false,Rx,0,8,00,68,00,00,00,00,00,29,
147000,000001AA,false,Rx,0,8,7F,FF,00,00,00,00,68,2F,
147000,000001B0,false,Rx,0,7,80,10,7F,FF,00,00,2D,00,
147000,000001D0,false,Rx,0,8,24,58,48,CC,91,F9,22,B2,
147000,000001DC,false,Rx,0,4,02,05,62,0F,00,00,00,00,
147000,000001E7,false,Rx,0,4,1A,00,68,27,00,00,00,00,
147000,00000320,false,Rx,0,3,00,00,03,00,00,00,00,00,
148000,00000324,false,Rx,0,8,7E,47,2D,10,3C,17,00,08,
148000,0000037C,false,Rx,0,8,D2,00,D4,34,00,01,00,0A,
148000,000003D7,false,Rx,0,8,B0,C1,04,00,00,00,00,05,
148000,00000156,false,Rx,0,6,00,02,00,03,07,1F,00,00,
148000,000001C0,false,Rx,0,7,00,00,10,00,00,00,37,00,
0,000001A6,false,Rx,0,8,02,00,00,4C,5F,80,00,36,
0,00000294,false,Rx,0,8,00,15,00,03,FA,C4,20,23,
149000,00000097,false,Rx,0,8,80,60,20,01,FD,00,00,29,
152000,00000039,false,Rx,0,2,00,39,00,00,00,00,00,00,
0,00000158,false,Rx,0,8,11,E1,05,16,11,E1,BD,04,
0,00000188,false,Rx,0,6,04,04,80,08,00,78,00,00,
0,0000018E,false,Rx,0,3,00,04,0D,00,00,00,00,00,
0,00000136,false,Rx,0,8,00,00,00,18,0C,00,00,18,
156000,0000013A,false,Rx,0,8,00,00,00,00,00,00,00,19,
156000,0000013F,false,Rx,0,8,02,2F,02,32,FF,CE,00,12,
0,0000015A,false,Rx,0,8,00,00,00,00,00,00,00,17,
0,0000017C,false,Rx,0,8,00,00,05,5D,48,00,00,10,
159000,00000156,false,Rx,0,6,00,02,00,01,07,20,00,00,
160000,00000097,false,Rx,0,8,80,60,20,01,FE,00,00,37,
163000,00000039,false,Rx,0,2,00,0C,00,00,00,00,00,00,
163000,00000158,false,Rx,0,8,11,DF,05,16,11,DF,BD,19,
164000,00000188,false,Rx,0,6,04,04,80,08,00,4B,00,00,
165000,0000018E,false,Rx,0,3,00,00,10,00,00,00,00,00,
165000,00000136,false,Rx,0,8,00,00,00,18,0C,00,00,27,
166000,0000013A,false,Rx,0,8,00,00,00,00,00,00,00,28,
166000,0000013F,false,Rx,0,8,02,2F,02,32,00,00,00,29,
166000,0000015A,false,Rx,0,8,00,00,00,00,00,00,00,26,
166000,0000017C,false,Rx,0,8,00,00,05,5D,48,00,00,2F,
167000,000001A4,false,Rx,0,8,00,69,00,00,00,00,00,37,
167000,000001AA,false,Rx,0,8,7F,FF,00,00,00,00,69,3D,
167000,000001B0,false,Rx,0,7,80,10,7F,FF,00,00,3C,00,
167000,000001D0,false,Rx,0,8,24,62,48,BC,91,91,22,4D,
167000,000001DC,false,Rx,0,4,02,05,5D,14,00,00,00,00,
168000,000001E7,false,Rx,0,4,1A,00,68,36,00,00,00,00,
0,00000156,false,Rx,0,6,00,01,00,01,07,30,00,00,
0,000001C0,false,Rx,0,7,00,00,10,00,00,00,0A,00,
0,000001A6,false,Rx,0,8,02,00,00,4C,5F,80,00,09,
170000,00000309,false,Rx,0,8,12,C5,00,00,00,30,00,41,
0,00000097,false,Rx,0,8,80,60,20,02,00,00,00,06,
0,00000374,false,Rx,0,7,00,00,00,00,00,00,0A,00,
0,00000377,false,Rx,0,8,0C,06,B5,74,CC,00,D2,03,
0,00000378,false,Rx,0,8,07,50,EA,16,40,20,00,05,
0,00000405,false,Rx,0,8,00,00,00,00,00,00,00,2D,
0,00000428,false,Rx,0,7,00,00,00,00,00,00,28,00,
173000,00000158,false,Rx,0,8,11,E6,05,19,11,E6,BD,25,
173000,00000188,false,Rx,0,6,04,04,80,08,00,5A,00,00,
173000,00000039,false,Rx,0,2,00,1B,00,00,00,00,00,00,
175000,0000018E,false,Rx,0,3,00,02,2D,00,00,00,00,00,
175000,00000136,false,Rx,0,8,00,00,00,18,0C,00,00,36,
176000,0000013A,false,Rx,0,8,00,00,00,00,00,00,00,37,
176000,0000013F,false,Rx,0,8,02,2F,02,31,00,32,00,34,
176000,0000015A,false,Rx,0,8,00,00,00,00,00,00,00,35,
176000,0000017C,false,Rx,0,8,00,00,05,62,48,00,00,38,
179000,00000156,false,Rx,0,6,00,02,00,01,07,02,00,00,
180000,00000097,false,Rx,0,8,80,60,20,01,FF,00,00,18,
0,00000158,false,Rx,0,8,11,E7,05,1A,11,E7,BD,31,
0,00000188,false,Rx,0,6,04,04,80,08,00,69,00,00,
0,00000039,false,Rx,0,2,00,2A,00,00,00,00,00,00,
0,0000018E,false,Rx,0,3,00,05,39,00,00,00,00,00,
185000,00000136,false,Rx,0,8,00,00,00,18,0C,00,00,09,
186000,0000013A,false,Rx,0,8,00,00,00,00,00,00,00,0A,
186000,0000013F,false,Rx,0,8,02,2F,02,31,00,00,00,0C,
186000,0000015A,false,Rx,0,8,00,00,00,00,00,00,00,08,
186000,0000017C,false,Rx,0,8,00,00,05,62,48,00,00,0B,
186000,000001A4,false,Rx,0,8,00,68,00,00,00,00,00,0B,
0,000001AA,false,Rx,0,8,7F,FF,00,00,00,00,68,01,
0,000001B0,false,Rx,0,7,80,10,7F,FF,00,00,0F,00,
187000,000001D0,false,Rx,0,8,24,72,48,EC,91,69,22,80,
0,000001DC,false,Rx,0,4,02,05,62,2D,00,00,00,00,
0,000001E7,false,Rx,0,4,1A,00,68,09,00,00,00,00,
189000,00000156,false,Rx,0,6,00,01,00,01,07,12,00,00,
189000,000001C0,false,Rx,0,7,00,00,10,00,00,00,19,00,
189000,000001A6,false,Rx,0,8,02,00,00,4C,5F,80,00,18,
189000,00000294,false,Rx,0,8,00,15,00,03,FA,C4,20,32,
190000,00000097,false,Rx,0,8,80,60,20,01,FF,00,00,27,
190000,00000305,false,Rx,0,2,0E,02,00,00,00,00,00,00,
0,00000158,false,Rx,0,8,11,E7,05,1A,11,E7,BD,04,
0,00000188,false,Rx,0,6,04,04,80,08,00,78,00,00,
195000,0000018E,false,Rx,0,3,00,00,01,00,00,00,00,00,
195000,00000136,false,Rx,0,8,00,00,00,18,0C,00,00,18,
195000,0000013A,false,Rx,0,8,00,00,00,00,00,00,00,19,
195000,0000013F,false,Rx,0,8,02,2E,02,30,00,28,00,13,
195000,0000015A,false,Rx,0,8,00,00,00,00,00,00,00,17,
195000,00000039,false,Rx,0,2,00,39,00,00,00,00,00,00,
196000,0000017C,false,Rx,0,8,00,00,05,66,48,00,00,16,
198000,00000156,false,Rx,0,6,00,02,00,02,07,2F,00,00,
199000,00000097,false,Rx,0,8,80,60,20,01,FF,00,00,36,
0,00000158,false,Rx,0,8,11,E7,05,18,11,E7,BD,15,
0,00000188,false,Rx,0,6,04,04,80,08,00,4B,00,00,
0,0000018E,false,Rx,0,3,00,00,10,00,00,00,00,00,
0,00000136,false,Rx,0,8,00,00,00,18,0C,00,00,27,
205000,0000013A,false,Rx,0,8,00,00,00,00,00,00,00,28,
206000,0000013F,false,Rx,0,8,02,2E,02,30,00,00,00,2C,
206000,0000015A,false,Rx,0,8,00,00,00,00,00,00,00,26,
206000,0000017C,false,Rx,0,8,00,00,05,66,48,00,00,25,
206000,000001A4,false,Rx,0,8,00,68,00,00,00,00,00,1A,
207000,000001AA,false,Rx,0,8,7F,FF,00,00,00,00,68,10,
207000,000001B0,false,Rx,0,7,80,10,7F,FF,00,00,1E,00,
207000,00000039,false,Rx,0,2,00,0C,00,00,00,00,00,00,
207000,000001D0,false,Rx,0,8,24,7C,48,C4,91,E1,24,42,
207000,000001DC,false,Rx,0,4,02,05,66,38,00,00,00,00,
207000,000001E7,false,Rx,0,4,1A,00,68,18,00,00,00,00,
208000,0000033D,false,Rx,0,4,01,40,00,1F,00,00,00,00,
209000,00000156,false,Rx,0,6,00,01,00,02,07,3F,00,00,
209000,000001C0,false,Rx,0,7,00,00,10,00,00,00,28,00,
209000,000001A6,false,Rx,0,8,02,00,00,4C,62,80,00,23,
210000,00000097,false,Rx,0,8,80,A0,20,02,00,00,00,02,
0,00000158,false,Rx,0,8,11,E7,05,19,11,E7,BD,23,
0,00000188,false,Rx,0,6,04,04,80,08,00,5A,00,00,
0,0000018E,false,Rx,0,3,00,00,2F,00,00,00,00,00,
0,00000136,false,Rx,0,8,00,00,00,18,0C,00,00,36,
0,0000013A,false,Rx,0,8,00,00,00,00,00,00,00,37,
216000,0000013F,false,Rx,0,8,02,2D,02,30,00,28,00,32,
216000,0000015A,false,Rx,0,8,00,00,00,00,00,00,00,35,
216000,0000017C,false,Rx,0,8,00,00,05,6A,48,00,00,30,
218000,00000039,false,Rx,0,2,00,1B,00,00,00,00,00,00,
219000,00000156,false,Rx,0,6,00,02,00,01,07,02,00,00,
0,00000097,false,Rx,0,8,80,60,20,01,FF,00,00,18,
0,0000030C,false,Rx,0,8,13,4E,4C,3C,01,60,90,31,
0,00000158,false,Rx,0,8,11,EC,05,1A,11,EC,BD,37,
0,00000188,false,Rx,0,6,04,04,80,08,00,69,00,00,
0,0000018E,false,Rx,0,3,00,03,3B,00,00,00,00,00,
0,00000136,false,Rx,0,8,00,00,00,18,0C,00,00,09,
225000,0000013A,false,Rx,0,8,00,00,00,00,00,00,00,0A,
226000,0000013F,false,Rx,0,8,02,2D,02,30,00,00,00,0F,
226000,0000015A,false,Rx,0,8,00,00,00,00,00,00,00,08,
226000,0000017C,false,Rx,0,8,00,00,05,6A,48,00,00,03,
226000,000001A4,false,Rx,0,8,00,68,00,00,00,00,00,29,
226000,000001AA,false,Rx,0,8,7F,FF,00,00,00,00,68,2F,
227000,000001B0,false,Rx,0,7,80,50,7F,FF,00,00,29,00,
0,000001D0,false,Rx,0,8,24,76,48,B4,91,E1,24,49,
0,000001DC,false,Rx,0,4,02,05,6A,07,00,00,00,00,
227000,000001E7,false,Rx,0,4,1A,00,68,27,00,00,00,00,
0,00000156,false,Rx,0,6,00,02,00,01,07,11,00,00,
0,00000039,false,Rx,0,2,00,2A,00,00,00,00,00,00,
0,000001C0,false,Rx,0,7,00,00,10,00,00,00,37,00,
0,000001A6,false,Rx,0,8,02,00,00,4B,63,80,00,32,
0,00000294,false,Rx,0,8,00,15,00,03,FA,C4,20,05,
230000,00000097,false,Rx,0,8,80,60,20,01,FE,00,00,28,
0,00000158,false,Rx,0,8,11,E7,05,1A,11,E7,BD,04,
0,00000188,false,Rx,0,6,04,04,80,08,00,78,00,00,
0,0000018E,false,Rx,0,3,00,02,0F,00,00,00,00,00,
0,00000136,false,Rx,0,8,00,00,00,18,0C,00,00,18,
235000,0000013A,false,Rx,0,8,00,00,00,00,00,00,00,19,
0,0000013F,false,Rx,0,8,02,2E,02,30,FF,D8,00,1A,
0,0000015A,false,Rx,0,8,00,00,00,00,00,00,00,17,
236000,0000017C,false,Rx,0,8,00,00,05,66,48,00,00,16,
239000,00000156,false,Rx,0,6,00,02,00,01,07,20,00,00,
240000,00000097,false,Rx,0,8,80,60,20,01,FE,00,00,37,
240000,00000039,false,Rx,0,2,00,39,00,00,00,00,00,00,
0,00000158,false,Rx,0,8,11,E3,05,19,11,E3,BD,1C,
0,00000188,false,Rx,0,6,04,04,80,08,00,4B,00,00,
0,0000018E,false,Rx,0,3,00,0D,13,00,00,00,00,00,
0,00000136,false,Rx,0,8,00,00,00,18,0C,00,00,27,
0,0000013A,false,Rx,0,8,00,00,00,00,00,00,00,28,
0,0000013F,false,Rx,0,8,02,2E,02,30,00,00,00,2C,
0,0000015A,false,Rx,0,8,00,00,00,00,00,00,00,26,
246000,0000017C,false,Rx,0,8,00,00,05,66,48,00,00,25,
246000,000001A4,false,Rx,0,8,00,68,00,00,00,00,00,38,
247000,000001AA,false,Rx,0,8,7F,FF,00,00,00,00,68,3E,
247000,000001B0,false,Rx,0,7,80,10,7F,FF,00,00,3C,00,
247000,000001D0,false,Rx,0,8,24,72,48,CC,91,E1,23,FA,
247000,000001DC,false,Rx,0,4,02,05,66,1A,00,00,00,00,
247000,000001E7,false,Rx,0,4,1A,00,68,36,00,00,00,00,
247000,00000320,false,Rx,0,3,00,00,12,00,00,00,00,00,
247000,00000324,false,Rx,0,8,7E,47,2D,11,3C,0E,00,10,
247000,0000037C,false,Rx,0,8,DA,00,DB,34,00,01,00,1A,
249000,00000156,false,Rx,0,6,00,01,00,03,07,3E,00,00,
249000,000001C0,false,Rx,0,7,00,00,10,00,00,00,0A,00,
249000,000001A6,false,Rx,0,8,02,00,00,4B,63,80,00,05,
250000,00000097,false,Rx,0,8,80,60,20,01,FC,00,00,0C,
251000,00000039,false,Rx,0,2,00,0C,00,00,00,00,00,00,
0,00000158,false,Rx,0,8,11,E7,05,18,11,E7,BD,24,
0,00000188,false,Rx,0,6,04,04,80,08,00,5A,00,00,
255000,0000018E,false,Rx,0,3,00,04,2B,00,00,00,00,00,
255000,00000136,false,Rx,0,8,00,00,00,18,0C,00,00,36,
255000,0000013A,false,Rx,0,8,00,00,00,00,00,00,00,37,
255000,0000013F,false,Rx,0,8,02,2E,02,3A,FF,F6,00,3E,
256000,0000015A,false,Rx,0,8,00,00,00,00,00,00,00,35,
256000,0000017C,false,Rx,0,8,00,00,05,65,48,00,00,35,
258000,00000156,false,Rx,0,6,00,01,00,03,07,01,00,00,
259000,00000097,false,Rx,0,8,80,60,20,01,FC,00,00,1B,
262000,00000039,false,Rx,0,2,00,1B,00,00,00,00,00,00,
0,00000158,false,Rx,0,8,11,EA,05,19,11,EA,BD,3C,
0,00000188,false,Rx,0,6,04,04,80,08,00,69,00,00,
0,0000018E,false,Rx,0,3,00,09,35,00,00,00,00,00,
0,00000136,false,Rx,0,8,00,00,00,18,0C,00,00,09,
265000,0000013A,false,Rx,0,8,00,00,00,00,00,00,00,0A,
0,0000013F,false,Rx,0,8,02,2E,02,3A,00,00,00,04,
0,0000015A,false,Rx,0,8,00,00,00,00,00,00,00,08,
266000,0000017C,false,Rx,0,8,00,00,05,65,48,00,00,08,
0,000001A4,false,Rx,0,8,00,68,00,00,00,00,00,0B,
0,000001AA,false,Rx,0,8,7F,FF,00,00,00,00,68,01,
0,000001B0,false,Rx,0,7,80,10,7F,FF,00,00,0F,00,
0,000001D0,false,Rx,0,8,24,5A,48,C0,91,D1,23,E2,
0,000001DC,false,Rx,0,4,02,05,65,2A,00,00,00,00,
267000,000001E7,false,Rx,0,4,1A,00,68,09,00,00,00,00,
268000,00000156,false,Rx,0,6,00,01,00,01,07,12,00,00,
268000,000001C0,false,Rx,0,7,00,00,10,00,00,00,19,00,
269000,000001A6,false,Rx,0,8,02,00,00,4B,63,80,00,14,
269000,00000294,false,Rx,0,8,00,15,00,03,FA,C4,20,14,
269000,00000097,false,Rx,0,8,80,60,20,01,FC,00,00,2A,
0,00000309,false,Rx,0,8,12,CC,00,00,00,30,00,59,
0,00000374,false,Rx,0,7,00,00,00,00,00,00,19,00,
270000,00000377,false,Rx,0,8,10,06,B5,74,CC,00,D2,1D,
270000,00000378,false,Rx,0,8,07,50,EA,16,40,20,00,14,
273000,00000039,false,Rx,0,2,00,2A,00,00,00,00,00,00,
273000,00000158,false,Rx,0,8,11,E4,05,19,11,E4,BD,0B,
273000,00000188,false,Rx,0,6,04,04,80,08,00,78,00,00,
275000,0000018E,false,Rx,0,3,00,04,0D,00,00,00,00,00,
275000,00000136,false,Rx,0,8,00,00,00,18,0C,00,00,18,
275000,0000013A,false,Rx,0,8,00,00,00,00,00,00,00,19,
275000,0000013F,false,Rx,0,8,02,35,02,3A,00,00,00,1B,
275000,0000015A,false,Rx,0,8,00,00,00,00,00,00,00,17,
276000,0000017C,false,Rx,0,8,00,00,05,65,48,00,00,17,
278000,00000156,false,Rx,0,6,00,01,00,01,07,21,00,00,
279000,00000097,false,Rx,0,8,80,60,10,01,FB,00,00,3B,
0,00000158,false,Rx,0,8,11,E2,05,1A,11,E2,BD,1D,
0,00000188,false,Rx,0,6,04,04,80,08,00,4B,00,00,
284000,00000039,false,Rx,0,2,00,39,00,00,00,00,00,00,
285000,0000018E,false,Rx,0,3,00,01,1F,00,00,00,00,00,
286000,00000136,false,Rx,0,8,00,00,00,18,0C,00,00,27,
286000,0000013A,false,Rx,0,8,00,00,00,00,00,00,00,28,
286000,0000013F,false,Rx,0,8,02,35,02,39,00,14,00,26,
286000,0000015A,false,Rx,0,8,00,00,00,00,00,00,00,26,
286000,0000017C,false,Rx,0,8,00,00,05,67,48,00,00,24,
287000,000001A4,false,Rx,0,8,00,68,00,00,00,00,00,1A,
287000,000001AA,false,Rx,0,8,7F,FF,00,00,00,00,68,10,
287000,000001B0,false,Rx,0,7,80,10,7F,FF,00,00,1E,00,
0,000001D0,false,Rx,0,8,24,58,48,BC,92,09,23,0B,
0,000001DC,false,Rx,0,4,02,05,67,37,00,00,00,00,
288000,000001E7,false,Rx,0,4,1A,00,68,18,00,00,00,00,
0,00000156,false,Rx,0,6,00,02,00,01,07,3F,00,00,
0,000001C0,false,Rx,0,7,00,00,10,00,00,00,28,00,
290000,000001A6,false,Rx,0,8,02,00,00,4B,63,80,00,23,
290000,00000097,false,Rx,0,8,80,60,10,01,FB,00,00,0E,
0,00000158,false,Rx,0,8,11,E2,05,17,11,E2,BD,2F,
0,00000188,false,Rx,0,6,04,04,80,08,00,5A,00,00,
295000,00000039,false,Rx,0,2,00,0C,00,00,00,00,00,00,
295000,0000015A,false,Rx,0,8,00,00,00,00,00,00,00,35,
295000,00000136,false,Rx,0,8,00,00,00,18,0C,00,00,36,
0,0000013A,false,Rx,0,8,00,00,00,00,00,00,00,37,
0,0000013F,false,Rx,0,8,02,37,02,39,00,00,00,38,
0,0000017C,false,Rx,0,8,00,00,05,67,48,00,00,33,
0,0000018E,false,Rx,0,3,00,04,2B,00,00,00,00,00,
296000,00000305,false,Rx,0,2,0E,11,00,00,00,00,00,00,
298000,00000156,false,Rx,0,6,00,02,00,01,07,02,00,00,
299000,00000097,false,Rx,0,8,80,60,20,01,FC,00,00,1B,
0,00000158,false,Rx,0,8,11,E2,05,17,11,E2,BD,3E,
0,00000188,false,Rx,0,6,04,04,80,08,00,69,00,00,
0,0000018E,false,Rx,0,3,00,00,3E,00,00,00,00,00,
0,00000136,false,Rx,0,8,00,00,00,18,0C,00,00,09,
0,0000013A,false,Rx,0,8,00,00,00,00,00,00,00,0A,
0,0000013F,false,Rx,0,8,02,37,02,39,00,14,00,06,
306000,0000015A,false,Rx,0,8,00,00,00,00,00,00,00,08,
306000,00000039,false,Rx,0,2,00,1B,00,00,00,00,00,00,
306000,0000017C,false,Rx,0,8,00,00,05,69,48,00,00,04,
0,000001A4,false,Rx,0,8,00,68,00,00,00,00,00,29,
0,000001AA,false,Rx,0,8,7F,FF,00,00,00,00,68,2F,
307000,000001B0,false,Rx,0,7,80,10,7F,FF,00,00,2D,00,
307000,000001D0,false,Rx,0,8,24,62,48,C4,92,31,23,39,
307000,000001DC,false,Rx,0,4,02,05,69,08,00,00,00,00,
307000,000001E7,false,Rx,0,4,1A,00,68,27,00,00,00,00,
307000,0000033D,false,Rx,0,4,01,40,00,2E,00,00,00,00,
0,00000156,false,Rx,0,6,00,02,00,00,07,12,00,00,
0,000001C0,false,Rx,0,7,00,00,10,00,00,00,37,00,
309000,000001A6,false,Rx,0,8,02,00,00,4B,63,80,00,32,
0,00000294,false,Rx,0,8,00,15,00,03,FA,C4,20,23,
0,00000097,false,Rx,0,8,80,60,20,01,FD,00,00,29,
0,00000158,false,Rx,0,8,11,E2,05,17,11,E2,BD,01,
0,00000188,false,Rx,0,6,04,04,80,08,00,78,00,00,
0,0000018E,false,Rx,0,3,00,00,01,00,00,00,00,00,
0,00000136,false,Rx,0,8,00,00,00,18,0C,00,00,18,
315000,0000013A,false,Rx,0,8,00,00,00,00,00,00,00,19,
316000,0000013F,false,Rx,0,8,02,37,02,39,00,00,00,1A,
316000,0000015A,false,Rx,0,8,00,00,00,00,00,00,00,17,
316000,0000017C,false,Rx,0,8,00,00,05,69,48,00,00,13,
317000,00000039,false,Rx,0,2,00,2A,00,00,00,00,00,00,
319000,00000156,false,Rx,0,6,00,01,00,01,07,21,00,00,
0,00000097,false,Rx,0,8,80,60,10,01,FC,00,00,3A,
0,0000030C,false,Rx,0,8,13,51,4C,3C,01,60,90,00,
0,00000158,false,Rx,0,8,11,E1,05,18,11,E1,BD,11,
0,00000188,false,Rx,0,6,04,04,80,08,00,4B,00,00,
0,0000018E,false,Rx,0,3,00,05,1B,00,00,00,00,00,
0,00000136,false,Rx,0,8,00,00,00,18,0C,00,00,27,
0,0000013A,false,Rx,0,8,00,00,00,00,00,00,00,28,
0,0000013F,false,Rx,0,8,02,38,02,3A,FF,CE,00,2F,
327000,0000015A,false,Rx,0,8,00,00,00,00,00,00,00,26,
0,0000017C,false,Rx,0,8,00,00,05,64,48,00,00,27,
0,000001A4,false,Rx,0,8,00,68,00,00,00,00,00,38,
327000,000001AA,false,Rx,0,8,7F,FF,00,00,00,00,68,3E,
0,000001B0,false,Rx,0,7,80,10,7F,FF,00,00,3C,00,
0,000001D0,false,Rx,0,8,24,66,48,98,91,E1,22,95,
0,000001DC,false,Rx,0,4,02,05,64,1C,00,00,00,00,
0,000001E7,false,Rx,0,4,1A,00,68,36,00,00,00,00,
328000,00000039,false,Rx,0,2,00,39,00,00,00,00,00,00,
0,00000156,false,Rx,0,6,00,02,00,02,07,3E,00,00,
0,000001C0,false,Rx,0,7,00,00,10,00,00,00,0A,00,
0,000001A6,false,Rx,0,8,02,00,00,4A,64,80,00,05,
0,00000097,false,Rx,0,8,80,60,10,01,FD,00,00,0C,
0,00000158,false,Rx,0,8,11,E2,05,17,11,E2,BD,2F,
0,00000188,false,Rx,0,6,04,04,80,08,00,5A,00,00,
0,0000018E,false,Rx,0,3,00,0E,21,00,00,00,00,00,
0,00000136,false,Rx,0,8,00,00,00,18,0C,00,00,36,
335000,0000013A,false,Rx,0,8,00,00,00,00,00,00,00,37,
336000,0000013F,false,Rx,0,8,02,38,02,3A,00,00,00,36,
336000,0000015A,false,Rx,0,8,00,00,00,00,00,00,00,35,
336000,0000017C,false,Rx,0,8,00,00,05,64,48,00,00,36,
0,00000156,false,Rx,0,6,00,02,00,03,07,00,00,00,
0,00000039,false,Rx,0,2,00,0C,00,00,00,00,00,00,
340000,00000097,false,Rx,0,8,80,60,10,01,FC,00,00,1C,
0,00000158,false,Rx,0,8,11,E1,05,17,11,E1,BD,30,
0,00000188,false,Rx,0,6,04,04,80,08,00,69,00,00,
0,0000018E,false,Rx,0,3,00,00,3E,00,00,00,00,00,
0,00000136,false,Rx,0,8,00,00,00,18,0C,00,00,09,
345000,0000013A,false,Rx,0,8,00,00,00,00,00,00,00,0A,
345000,0000013F,false,Rx,0,8,02,37,02,39,00,28,00,01,
345000,0000015A,false,Rx,0,8,00,00,00,00,00,00,00,08,
346000,0000017C,false,Rx,0,8,00,00,05,68,48,00,00,05,
0,000001A4,false,Rx,0,8,00,68,00,00,00,00,00,0B,
0,000001AA,false,Rx,0,8,7F,FF,00,00,00,00,68,01,
0,000001B0,false,Rx,0,7,80,10,7F,FF,00,00,0F,00,
346000,000001D0,false,Rx,0,8,24,70,49,00,91,C9,23,75,
348000,000001DC,false,Rx,0,4,02,05,68,27,00,00,00,00,
348000,000001E7,false,Rx,0,4,1A,00,68,09,00,00,00,00,
348000,00000320,false,Rx,0,3,00,00,21,00,00,00,00,00,
348000,00000324,false,Rx,0,8,7E,47,2D,12,3C,10,00,2B,
348000,0000037C,false,Rx,0,8,D8,00,DA,34,00,01,00,2C,
349000,000003D7,false,Rx,0,8,B0,00,00,00,00,00,00,51,
349000,00000400,false,Rx,0,5,00,00,00,00,22,00,00,00,
349000,00000156,false,Rx,0,6,00,01,00,00,07,13,00,00,
0,000001C0,false,Rx,0,7,00,00,10,00,00,00,19,00,
0,00000406,false,Rx,0,5,00,00,00,01,0D,00,00,00,
350000,000001A6,false,Rx,0,8,02,00,00,4A,63,80,00,15,
350000,00000097,false,Rx,0,8,80,60,20,01,FA,00,00,2C,
0,00000294,false,Rx,0,8,00,15,00,03,FA,C4,20,32,
0,00000039,false,Rx,0,2,00,1B,00,00,00,00,00,00,
351000,0000040C,false,Rx,0,8,7D,00,7F,FD,26,80,00,20,
351000,00000454,false,Rx,0,6,37,F5,02,29,90,25,00,00,
0,00000465,false,Rx,0,7,FF,FF,FF,FF,FF,FF,23,00,
0,000006C1,false,Rx,0,1,14,00,00,00,00,00,00,00,
0,00000158,false,Rx,0,8,11,DE,05,16,11,DE,BD,0C,
0,00000188,false,Rx,0,6,04,04,80,08,00,78,00,00,
355000,0000018E,false,Rx,0,3,00,03,0E,00,00,00,00,00,
356000,00000136,false,Rx,0,8,00,00,00,18,0D,00,00,17,
356000,0000013A,false,Rx,0,8,00,00,00,00,00,00,00,19,
356000,0000013F,false,Rx,0,8,02,37,02,4C,00,00,00,16,
356000,0000015A,false,Rx,0,8,00,00,00,00,00,00,00,17,
356000,0000017C,false,Rx,0,8,00,00,05,68,48,00,00,14,
358000,00000156,false,Rx,0,6,00,01,00,00,07,22,00,00,
361000,00000097,false,Rx,0,8,80,60,20,01,FD,00,00,38,
361000,00000039,false,Rx,0,2,00,2A,00,00,00,00,00,00,
0,00000158,false,Rx,0,8,11,E3,05,18,11,E3,BD,1D,
0,00000188,false,Rx,0,6,04,04,80,08,00,4B,00,00,
0,0000018E,false,Rx,0,3,00,03,1D,00,00,00,00,00,
0,00000136,false,Rx,0,8,00,00,00,18,0D,00,00,26,
0,0000013A,false,Rx,0,8,00,00,00,00,00,00,00,28,
0,0000013F,false,Rx,0,8,02,39,02,4C,FF,F6,00,20,
366000,0000015A,false,Rx,0,8,00,00,00,00,00,00,00,26,
366000,0000017C,false,Rx,0,8,00,00,05,67,48,00,00,24,
366000,000001A4,false,Rx,0,8,00,68,00,00,00,00,00,1A,
367000,000001AA,false,Rx,0,8,7F,FF,00,00,00,00,68,10,
367000,000001B0,false,Rx,0,7,80,10,7F,FF,00,00,1E,00,
367000,000001D0,false,Rx,0,8,24,6E,48,BC,92,19,23,F4,
367000,000001DC,false,Rx,0,4,02,05,67,37,00,00,00,00,
367000,000001E7,false,Rx,0,4,1A,00,68,18,00,00,00,00,
368000,00000156,false,Rx,0,6,00,01,00,01,07,30,00,00,
368000,000001C0,false,Rx,0,7,00,00,10,00,00,00,28,00,
369000,000001A6,false,Rx,0,8,02,00,00,4A,63,80,00,24,
369000,00000309,false,Rx,0,8,12,C2,00,00,00,30,00,62,
369000,00000097,false,Rx,0,8,80,60,20,01,FF,00,00,09,
369000,00000374,false,Rx,0,7,00,00,00,00,00,00,28,00,
370000,00000377,false,Rx,0,8,10,06,B5,74,CC,00,D2,2C,
370000,00000378,false,Rx,0,8,07,50,EA,16,40,20,00,23,
371000,00000039,false,Rx,0,2,00,39,00,00,00,00,00,00,
373000,00000421,false,Rx,0,5,00,00,00,01,1F,00,00,00,
373000,00000158,false,Rx,0,8,11,E5,05,17,11,E5,BD,29,
373000,00000188,false,Rx,0,6,04,04,80,08,00,5A,00,00,
376000,0000018E,false,Rx,0,3,00,01,2E,00,00,00,00,00,
376000,00000136,false,Rx,0,8,00,00,00,18,0D,00,00,35,
0,0000013A,false,Rx,0,8,00,00,00,00,00,00,00,37,
0,0000013F,false,Rx,0,8,02,40,02,4C,00,00,00,3A,
376000,0000015A,false,Rx,0,8,00,00,00,00,00,00,00,35,
377000,0000017C,false,Rx,0,8,00,00,05,67,48,00,00,33,
379000,00000156,false,Rx,0,6,00,01,00,03,07,01,00,00,
380000,00000097,false,Rx,0,8,80,60,20,01,FE,00,00,19,
382000,00000039,false,Rx,0,2,00,0C,00,00,00,00,00,00,
382000,00000158,false,Rx,0,8,11,E2,05,19,11,E2,BD,3C,
384000,00000188,false,Rx,0,6,04,04,80,08,00,69,00,00,
385000,0000018E,false,Rx,0,3,00,05,39,00,00,00,00,00,
0,0000015A,false,Rx,0,8,00,00,00,00,00,00,00,08,
0,00000136,false,Rx,0,8,00,00,00,19,0D,00,00,07,
385000,0000013A,false,Rx,0,8,00,00,00,00,00,00,00,0A,
385000,0000013F,false,Rx,0,8,02,4A,02,4C,00,00,00,03,
385000,0000017C,false,Rx,0,8,00,00,05,67,48,00,00,06,
0,000001A4,false,Rx,0,8,00,68,00,00,00,00,00,29,
0,000001AA,false,Rx,0,8,7F,FF,00,00,00,00,68,2F,
386000,000001B0,false,Rx,0,7,80,10,7F,FF,00,00,2D,00,
386000,000001D0,false,Rx,0,8,24,6E,48,B4,92,09,24,83,
387000,000001DC,false,Rx,0,4,02,05,67,0A,00,00,00,00,
387000,000001E7,false,Rx,0,4,1A,00,68,27,00,00,00,00,
0,00000156,false,Rx,0,6,00,01,00,02,07,11,00,00,
0,000001C0,false,Rx,0,7,00,00,10,00,00,00,37,00,
389000,000001A6,false,Rx,0,8,02,00,00,4A,63,80,00,33,
389000,00000294,false,Rx,0,8,00,15,00,03,FA,C4,20,05,
389000,00000097,false,Rx,0,8,80,60,10,01,FF,00,00,28,
0,00000158,false,Rx,0,8,11,E9,05,19,11,E9,BD,01,
0,00000188,false,Rx,0,6,04,04,80,08,00,78,00,00,
394000,00000039,false,Rx,0,2,00,1B,00,00,00,00,00,00,
395000,0000018E,false,Rx,0,3,00,05,0C,00,00,00,00,00,
395000,0000015A,false,Rx,0,8,00,00,00,00,00,00,00,17,
395000,00000136,false,Rx,0,8,00,00,00,19,0D,00,00,16,
395000,0000013A,false,Rx,0,8,00,00,00,00,00,00,00,19,
396000,0000013F,false,Rx,0,8,02,49,02,4C,00,28,00,19,
396000,0000017C,false,Rx,0,8,00,00,05,6B,48,00,00,11,
399000,00000156,false,Rx,0,6,00,01,00,02,07,20,00,00,
0,00000305,false,Rx,0,2,0E,20,00,00,00,00,00,00,
0,00000097,false,Rx,0,8,80,60,20,01,FE,00,00,37,
0,00000158,false,Rx,0,8,11,EB,05,19,11,EB,BD,1C,
0,00000188,false,Rx,0,6,04,04,80,08,00,4B,00,00,
0,0000018E,false,Rx,0,3,00,06,1A,00,00,00,00,00,
0,00000039,false,Rx,0,2,00,2A,00,00,00,00,00,00,
0,0000015A,false,Rx,0,8,00,00,00,00,00,00,00,26,
0,00000136,false,Rx,0,8,00,00,00,19,0D,00,00,25,
406000,0000013A,false,Rx,0,8,00,00,00,00,00,00,00,28,
406000,0000013F,false,Rx,0,8,02,52,02,4B,00,00,00,29,
406000,0000017C,false,Rx,0,8,00,00,05,6B,48,00,00,20,
407000,000001A4,false,Rx,0,8,00,68,00,00,00,00,00,38,
407000,000001AA,false,Rx,0,8,7F,FF,00,00,00,00,68,3E,
407000,000001B0,false,Rx,0,7,80,10,7F,FF,00,00,3C,00,
407000,000001D0,false,Rx,0,8,24,6E,48,B4,91,E1,24,60,
0,000001DC,false,Rx,0,4,02,05,6B,15,00,00,00,00,
0,000001E7,false,Rx,0,4,1A,00,68,36,00,00,00,00,
408000,0000033D,false,Rx,0,4,01,40,00,3D,00,00,00,00,
409000,00000156,false,Rx,0,6,00,01,00,01,07,30,00,00,
409000,000001C0,false,Rx,0,7,00,00,10,00,00,00,0A,00,
409000,000001A6,false,Rx,0,8,02,00,00,4A,63,80,00,06,
409000,00000097,false,Rx,0,8,80,60,20,01,FD,00,00,0B,
0,00000158,false,Rx,0,8,11,E2,05,18,11,E2,BD,2E,
0,00000188,false,Rx,0,6,04,04,80,08,00,5A,00,00,
0,0000018E,false,Rx,0,3,00,07,28,00,00,00,00,00,
0,00000136,false,Rx,0,8,00,00,00,19,0D,00,00,34,
415000,0000013A,false,Rx,0,8,00,00,00,00,00,00,00,37,
415000,0000013F,false,Rx,0,8,02,53,02,4C,FF,CE,00,3E,
415000,0000015A,false,Rx,0,8,00,00,00,00,00,00,00,35,
416000,00000039,false,Rx,0,2,00,39,00,00,00,00,00,00,
416000,0000017C,false,Rx,0,8,00,00,05,66,48,00,00,34,
418000,00000156,false,Rx,0,6,00,01,00,00,07,04,00,00,
0,00000097,false,Rx,0,8,80,60,20,01,FC,00,00,1B,
0,0000030C,false,Rx,0,8,13,53,4E,3C,01,60,90,1B,
0,00000158,false,Rx,0,8,11,DD,05,17,11,DD,BD,3A,
0,00000188,false,Rx,0,6,04,04,80,08,00,69,00,00,
424000,0000018E,false,Rx,0,3,00,01,3D,00,00,00,00,00,
424000,00000136,false,Rx,0,8,00,00,00,19,0D,00,00,07,
426000,0000013A,false,Rx,0,8,00,00,00,00,00,00,00,0A,
426000,0000013F,false,Rx,0,8,02,53,02,4C,00,00,00,09,
426000,0000015A,false,Rx,0,8,00,00,00,00,00,00,00,08,
0,0000017C,false,Rx,0,8,00,00,05,66,48,00,00,07,
0,000001A4,false,Rx,0,8,00,68,00,00,00,00,00,0B,
427000,000001AA,false,Rx,0,8,7F,FF,00,00,00,00,68,01,
0,000001B0,false,Rx,0,7,80,10,7F,FF,00,00,0F,00,
0,00000039,false,Rx,0,2,00,0C,00,00,00,00,00,00,
0,000001D0,false,Rx,0,8,24,58,48,D4,92,41,23,F6,
0,000001DC,false,Rx,0,4,02,05,66,29,00,00,00,00,
428000,000001E7,false,Rx,0,4,1A,00,68,09,00,00,00,00,
429000,00000156,false,Rx,0,6,00,01,00,01,07,12,00,00,
429000,000001C0,false,Rx,0,7,00,00,10,00,00,00,19,00,
429000,000001A6,false,Rx,0,8,02,00,00,49,6B,80,00,1E,
430000,00000294,false,Rx,0,8,00,15,00,03,FA,C4,20,14,
430000,00000097,false,Rx,0,8,80,60,20,01,FB,00,00,2B,
0,00000158,false,Rx,0,8,11,DF,05,17,11,DF,BD,09,
0,00000188,false,Rx,0,6,04,04,80,08,00,78,00,00,
0,0000018E,false,Rx,0,3,00,01,00,00,00,00,00,00,
0,00000136,false,Rx,0,8,00,00,00,19,0D,00,00,16,
0,0000013A,false,Rx,0,8,00,00,00,00,00,00,00,19,
0,0000013F,false,Rx,0,8,02,52,02,4B,00,3C,00,1B,
436000,0000015A,false,Rx,0,8,00,00,00,43,00,00,00,10,
436000,0000017C,false,Rx,0,8,00,00,05,6C,48,00,00,10,
437000,00000039,false,Rx,0,2,00,1B,00,00,00,00,00,00,
438000,00000156,false,Rx,0,6,00,01,00,01,07,21,00,00,
439000,00000097,false,Rx,0,8,80,60,20,01,FD,00,00,38,
0,00000158,false,Rx,0,8,11,E4,05,18,11,E4,BD,1B,
0,00000188,false,Rx,0,6,04,04,80,08,00,4B,00,00,
445000,0000018E,false,Rx,0,3,00,04,1C,00,00,00,00,00,
445000,00000136,false,Rx,0,8,00,00,00,19,0D,00,00,25,
445000,0000013A,false,Rx,0,8,00,00,00,00,00,00,00,28,
445000,0000013F,false,Rx,0,8,02,52,02,4B,00,00,00,29,
445000,0000015A,false,Rx,0,8,00,00,00,43,00,00,00,2F,
446000,0000017C,false,Rx,0,8,00,00,05,6C,48,00,00,2F,
446000,000001A4,false,Rx,0,8,00,68,00,00,00,00,00,1A,
446000,000001AA,false,Rx,0,8,7F,FF,00,00,00,00,68,10,
446000,000001B0,false,Rx,0,7,80,10,7F,FF,00,00,1E,00,
447000,000001D0,false,Rx,0,8,24,72,48,E4,92,59,24,86,
447000,000001DC,false,Rx,0,4,02,05,6C,32,00,00,00,00,
447000,000001E7,false,Rx,0,4,1A,00,68,18,00,00,00,00,
447000,00000320,false,Rx,0,3,00,00,30,00,00,00,00,00,
447000,00000324,false,Rx,0,8,7E,47,2D,13,3C,1D,00,3C,
448000,0000037C,false,Rx,0,8,CD,00,D0,34,00,01,00,31,
448000,00000156,false,Rx,0,6,00,01,00,01,07,30,00,00,
0,000001C0,false,Rx,0,7,00,00,10,00,00,00,28,00,
0,00000039,false,Rx,0,2,00,2A,00,00,00,00,00,00,
449000,000001A6,false,Rx,0,8,02,00,00,49,69,80,00,2F,
449000,00000097,false,Rx,0,8,80,60,20,01,FE,00,00,0A,
0,00000158,false,Rx,0,8,11,E7,05,19,11,E7,BD,23,
0,00000188,false,Rx,0,6,04,04,80,08,00,5A,00,00,
0,0000018E,false,Rx,0,3,00,04,2B,00,00,00,00,00,
0,00000136,false,Rx,0,8,00,00,00,19,0D,00,00,34,
0,0000013A,false,Rx,0,8,00,00,00,00,00,00,00,37,
0,0000013F,false,Rx,0,8,02,51,02,57,00,32,00,37,
456000,0000015A,false,Rx,0,8,00,00,00,43,00,00,00,3E,
456000,0000017C,false,Rx,0,8,00,00,05,71,48,00,00,38,
459000,00000156,false,Rx,0,6,00,02,00,01,07,02,00,00,
0,00000097,false,Rx,0,8,80,60,20,01,FD,00,00,1A,
0,00000039,false,Rx,0,2,00,39,00,00,00,00,00,00,
0,00000158,false,Rx,0,8,11,EC,05,1A,11,EC,BD,37,
0,00000188,false,Rx,0,6,04,04,80,08,00,69,00,00,
465000,0000018E,false,Rx,0,3,00,01,3D,00,00,00,00,00,
465000,00000136,false,Rx,0,8,00,00,00,19,0D,00,00,07,
465000,0000013A,false,Rx,0,8,00,00,00,00,00,00,00,0A,
465000,0000013F,false,Rx,0,8,02,51,02,57,00,00,00,0F,
465000,0000015A,false,Rx,0,8,00,00,00,43,00,00,00,01,
0,0000017C,false,Rx,0,8,00,00,05,71,48,00,00,0B,
0,000001A4,false,Rx,0,8,00,68,00,00,00,00,00,29,
467000,000001AA,false,Rx,0,8,7F,FF,00,00,00,00,68,2F,
467000,000001B0,false,Rx,0,7,80,10,7F,FF,00,00,2D,00,
467000,000001D0,false,Rx,0,8,24,82,48,D4,92,91,23,5E,
0,000001DC,false,Rx,0,4,02,05,71,0F,00,00,00,00,
0,000001E7,false,Rx,0,4,1A,00,68,27,00,00,00,00,
469000,00000156,false,Rx,0,6,00,02,00,01,07,11,00,00,
469000,000001C0,false,Rx,0,7,00,00,10,00,00,00,37,00,
469000,000001A6,false,Rx,0,8,02,00,00,49,68,80,00,3F,
469000,00000294,false,Rx,0,8,00,15,00,03,FA,C4,20,23,
469000,00000097,false,Rx,0,8,80,60,20,01,FC,00,00,2A,
469000,00000309,false,Rx,0,8,12,CC,00,00,00,30,00,77,
469000,00000374,false,Rx,0,7,00,00,00,00,00,00,37,00,
471000,00000377,false,Rx,0,8,14,06,B5,74,CC,00,D2,37,
471000,00000378,false,Rx,0,8,07,50,EA,16,40,20,00,32,
471000,00000405,false,Rx,0,8,00,00,00,00,00,00,00,3C,
471000,00000039,false,Rx,0,2,00,0C,00,00,00,00,00,00,
472000,00000428,false,Rx,0,7,00,00,00,00,00,00,37,00,
0,00000158,false,Rx,0,8,11,EF,05,1A,11,EF,BD,04,
0,00000188,false,Rx,0,6,04,04,80,08,00,78,00,00,
0,0000018E,false,Rx,0,3,00,03,0E,00,00,00,00,00,
0,00000136,false,Rx,0,8,00,00,00,19,0D,00,00,16,
476000,0000013A,false,Rx,0,8,00,00,00,00,00,00,00,19,
476000,0000013F,false,Rx,0,8,02,51,02,56,00,32,00,1A,
476000,0000015A,false,Rx,0,8,00,00,00,43,00,00,00,10,
476000,0000017C,false,Rx,0,8,00,00,05,76,48,00,00,15,
479000,00000156,false,Rx,0,6,00,01,00,03,07,2F,00,00,
480000,00000097,false,Rx,0,8,80,60,20,01,FD,00,00,38,
482000,00000039,false,Rx,0,2,00,1B,00,00,00,00,00,00,
0,00000158,false,Rx,0,8,11,F0,05,1B,11,F0,BD,1E,
0,00000188,false,Rx,0,6,04,04,80,08,00,4B,00,00,
0,0000018E,false,Rx,0,3,00,00,10,00,00,00,00,00,
0,00000136,false,Rx,0,8,00,00,00,19,0D,00,00,25,
484000,0000013A,false,Rx,0,8,00,00,00,00,00,00,00,28,
486000,0000013F,false,Rx,0,8,02,51,02,56,00,00,00,2E,
0,0000015A,false,Rx,0,8,00,00,00,00,00,00,00,26,
0,0000017C,false,Rx,0,8,00,00,05,76,48,00,00,24,
486000,000001A4,false,Rx,0,8,00,68,00,00,00,00,00,38,
486000,000001AA,false,Rx,0,8,7F,FF,00,00,00,00,68,3E,
487000,000001B0,false,Rx,0,7,80,10,7F,FF,00,00,3C,00,
487000,000001D0,false,Rx,0,8,24,8C,49,18,92,51,23,C8,
487000,000001DC,false,Rx,0,4,02,05,76,19,00,00,00,00,
487000,000001E7,false,Rx,0,4,1A,00,68,36,00,00,00,00,
488000,00000156,false,Rx,0,6,00,01,00,01,07,30,00,00,
489000,000001C0,false,Rx,0,7,00,00,10,00,00,00,0A,00,
489000,000001A6,false,Rx,0,8,02,00,00,49,69,80,00,01,
490000,00000097,false,Rx,0,8,80,60,20,01,FE,00,00,0A,
493000,00000039,false,Rx,0,2,00,2A,00,00,00,00,00,00,
0,00000158,false,Rx,0,8,11,E7,05,1B,11,E7,BD,21,
0,00000188,false,Rx,0,6,04,04,80,08,00,5A,00,00,
494000,0000018E,false,Rx,0,3,00,02,2D,00,00,00,00,00,
494000,00000136,false,Rx,0,8,00,00,00,19,0D,00,00,34,
496000,0000013A,false,Rx,0,8,00,00,00,00,00,00,00,37,
496000,0000013F,false,Rx,0,8,02,50,02,56,00,0A,00,34,
496000,0000015A,false,Rx,0,8,00,00,00,00,00,00,00,35,
496000,0000017C,false,Rx,0,8,00,00,05,77,48,00,00,32,
498000,00000156,false,Rx,0,6,00,02,00,01,07,02,00,00,
499000,00000097,false,Rx,0,8,80,60,20,01,FD,00,00,1A,
0,00000158,false,Rx,0,8,11,EC,05,1B,11,EC,BD,36,
0,00000188,false,Rx,0,6,04,04,80,08,00,69,00,00,
0,00000039,false,Rx,0,2,00,39,00,00,00,00,00,00,
0,00000305,false,Rx,0,2,0E,3F,00,00,00,00,00,00,
0,0000018E,false,Rx,0,3,00,08,36,00,00,00,00,00,
0,00000136,false,Rx,0,8,00,00,00,19,0D,00,00,07,
0,0000013A,false,Rx,0,8,00,00,00,00,00,00,00,0A,
0,0000013F,false,Rx,0,8,02,50,02,56,00,00,00,01,
506000,0000015A,false,Rx,0,8,00,00,00,00,00,00,00,08,
506000,0000017C,false,Rx,0,8,00,00,05,77,48,00,00,05,
507000,000001A4,false,Rx,0,8,00,68,00,00,00,00,00,0B,
0,000001AA,false,Rx,0,8,7F,FF,00,00,00,00,68,01,
0,000001B0,false,Rx,0,7,80,10,7F,FF,00,00,0F,00,
0,000001D0,false,Rx,0,8,24,98,49,18,92,19,24,11,
0,000001DC,false,Rx,0,4,02,05,77,27,00,00,00,00,
508000,000001E7,false,Rx,0,4,1A,00,68,09,00,00,00,00,
508000,0000033D,false,Rx,0,4,01,40,00,00,00,00,00,00,
509000,00000156,false,Rx,0,6,00,01,00,01,07,12,00,00,
509000,000001C0,false,Rx,0,7,00,00,10,00,00,00,19,00,
509000,000001A6,false,Rx,0,8,02,00,00,49,63,80,00,16,
510000,00000294,false,Rx,0,8,00,15,00,03,FA,C4,20,32,
510000,00000097,false,Rx,0,8,80,60,20,01,FC,00,00,2A,
0,00000158,false,Rx,0,8,11,F3,05,1A,11,F3,BD,0A,
0,00000188,false,Rx,0,6,04,04,80,08,00,78,00,00,
515000,00000039,false,Rx,0,2,00,0C,00,00,00,00,00,00,
515000,00000136,false,Rx,0,8,00,00,00,19,0D,00,00,16,
515000,0000013A,false,Rx,0,8,00,00,00,00,00,00,00,19,
515000,0000013F,false,Rx,0,8,02,50,02,55,00,3C,00,12,
516000,0000015A,false,Rx,0,8,00,00,00,00,00,00,00,17,
516000,0000017C,false,Rx,0,8,00,00,05,7D,48,00,00,1E,
516000,0000018E,false,Rx,0,3,00,08,09,00,00,00,00,00,
519000,00000156,false,Rx,0,6,00,01,00,01,07,21,00,00,
0,00000097,false,Rx,0,8,80,60,20,01,FC,00,00,39,
0,0000030C,false,Rx,0,8,13,57,4E,3C,01,60,90,26,
0,00000158,false,Rx,0,8,11,F2,05,1B,11,F2,BD,1A,
0,00000188,false,Rx,0,6,04,04,80,08,00,4B,00,00,
525000,0000018E,false,Rx,0,3,00,02,1E,00,00,00,00,00,
525000,00000136,false,Rx,0,8,00,00,00,19,0D,00,00,25,
526000,0000013A,false,Rx,0,8,00,00,00,00,00,00,00,28,
526000,0000013F,false,Rx,0,8,02,50,02,55,00,00,00,20,
526000,0000015A,false,Rx,0,8,00,00,00,00,00,00,00,26,
526000,00000039,false,Rx,0,2,00,1B,00,00,00,00,00,00,
526000,0000017C,false,Rx,0,8,00,00,05,7D,48,00,00,2D,
0,000001A4,false,Rx,0,8,00,68,00,00,00,00,00,1A,
0,000001AA,false,Rx,0,8,7F,FF,00,00,00,00,68,10,
527000,000001B0,false,Rx,0,7,80,10,7F,FF,00,00,1E,00,
527000,000001D0,false,Rx,0,8,24,9C,49,08,92,D9,25,7B,
527000,000001DC,false,Rx,0,4,02,05,7D,30,00,00,00,00,
527000,000001E7,false,Rx,0,4,1A,00,68,18,00,00,00,00,
528000,00000156,false,Rx,0,6,00,01,00,01,07,30,00,00,
528000,000001C0,false,Rx,0,7,00,00,10,00,00,00,28,00,
529000,000001A6,false,Rx,0,8,02,00,00,49,63,80,00,25,
529000,00000097,false,Rx,0,8,80,60,20,01,FD,00,00,0B,
0,00000158,false,Rx,0,8,11,F9,05,1E,11,F9,BD,28,
0,00000188,false,Rx,0,6,04,04,80,08,00,5A,00,00,
0,0000018E,false,Rx,0,3,00,01,2E,00,00,00,00,00,
0,00000136,false,Rx,0,8,00,00,00,19,0D,00,00,34,
535000,0000013A,false,Rx,0,8,00,00,00,00,00,00,00,37,
536000,0000013F,false,Rx,0,8,02,50,02,55,00,00,00,3F,
536000,0000015A,false,Rx,0,8,00,00,00,00,00,00,00,35,
536000,0000017C,false,Rx,0,8,00,00,05,7D,48,00,00,3C,
537000,00000039,false,Rx,0,2,00,2A,00,00,00,00,00,00,
539000,00000156,false,Rx,0,6,00,02,00,01,07,02,00,00,
540000,00000097,false,Rx,0,8,80,60,20,01,FE,00,00,19,
0,00000158,false,Rx,0,8,11,FC,05,1F,11,FC,BD,30,
0,00000188,false,Rx,0,6,04,04,80,08,00,69,00,00,
545000,0000018E,false,Rx,0,3,00,04,3A,00,00,00,00,00,
545000,00000136,false,Rx,0,8,00,00,00,19,0D,00,00,07,
545000,0000013A,false,Rx,0,8,00,00,00,00,00,00,00,0A,
545000,0000013F,false,Rx,0,8,02,4F,02,55,00,1E,00,05,
545000,0000015A,false,Rx,0,8,00,00,00,43,00,00,00,01,
545000,0000017C,false,Rx,0,8,00,00,05,80,48,00,00,0B,
0,000001A4,false,Rx,0,8,00,68,00,00,00,00,00,29,
0,000001AA,false,Rx,0,8,7F,FF,00,00,00,00,68,2F,
548000,000001B0,false,Rx,0,7,80,10,7F,FF,00,00,2D,00,
0,000001D0,false,Rx,0,8,24,A2,49,08,92,91,25,9E,
0,000001DC,false,Rx,0,4,02,05,80,0F,00,00,00,00,
548000,000001E7,false,Rx,0,4,1A,00,68,27,00,00,00,00,
0,00000320,false,Rx,0,3,00,00,03,00,00,00,00,00,
0,00000324,false,Rx,0,8,7E,47,2D,14,3C,1E,00,0D,
0,00000039,false,Rx,0,2,00,39,00,00,00,00,00,00,
548000,0000037C,false,Rx,0,8,CC,00,CE,34,00,01,00,08,
548000,000003D7,false,Rx,0,8,B0,C1,04,00,00,00,00,23,
548000,00000156,false,Rx,0,6,00,01,00,01,07,12,00,00,
548000,000001C0,false,Rx,0,7,00,00,10,00,00,00,37,00,
550000,000001A6,false,Rx,0,8,02,00,00,49,63,80,00,34,
550000,00000294,false,Rx,0,8,00,15,00,03,FA,C4,20,05,
550000,00000097,false,Rx,0,8,80,60,20,01,FF,00,00,27,
0,00000158,false,Rx,0,8,11,FB,05,20,11,FB,BD,03,
0,00000188,false,Rx,0,6,04,04,80,08,00,78,00,00,
554000,0000018E,false,Rx,0,3,00,05,0C,00,00,00,00,00,
554000,00000136,false,Rx,0,8,00,00,00,19,0E,00,00,15,
556000,0000013A,false,Rx,0,8,00,00,00,00,00,00,00,19,
556000,0000013F,false,Rx,0,8,02,4F,02,5C,00,00,00,1C,
556000,0000015A,false,Rx,0,8,00,00,00,43,00,00,00,10,
556000,0000017C,false,Rx,0,8,00,00,05,80,48,00,00,1A,
558000,00000156,false,Rx,0,6,00,02,00,00,07,21,00,00,
558000,00000039,false,Rx,0,2,00,0C,00,00,00,00,00,00,
559000,00000097,false,Rx,0,8,80,60,20,01,FC,00,00,39,
0,00000158,false,Rx,0,8,12,00,05,20,12,00,BD,14,
0,00000188,false,Rx,0,6,04,04,80,08,00,4B,00,00,
0,0000018E,false,Rx,0,3,00,01,1F,00,00,00,00,00,
0,00000136,false,Rx,0,8,00,00,00,19,0E,00,00,24,
0,0000013A,false,Rx,0,8,00,00,00,00,00,00,00,28,
566000,0000013F,false,Rx,0,8,02,53,02,5A,00,50,00,23,
566000,0000015A,false,Rx,0,8,00,00,00,43,00,00,00,2F,
566000,0000017C,false,Rx,0,8,00,00,05,88,48,00,00,21,
566000,000001A4,false,Rx,0,8,00,68,00,00,00,00,00,38,
567000,000001AA,false,Rx,0,8,7F,FF,00,00,00,00,68,3E,
567000,000001B0,false,Rx,0,7,80,10,7F,FF,00,00,3C,00,
567000,000001D0,false,Rx,0,8,24,A0,49,30,92,A1,25,49,
567000,000001DC,false,Rx,0,4,02,05,88,16,00,00,00,00,
567000,000001E7,false,Rx,0,4,1A,00,68,36,00,00,00,00,
0,00000156,false,Rx,0,6,00,02,00,01,07,3F,00,00,
0,000001C0,false,Rx,0,7,00,00,10,00,00,00,0A,00,
569000,000001A6,false,Rx,0,8,02,00,00,49,63,80,00,07,
569000,00000309,false,Rx,0,8,12,E1,00,00,00,30,00,43,
0,00000097,false,Rx,0,8,80,60,20,01,FC,00,00,0C,
0,00000374,false,Rx,0,7,00,00,00,00,00,00,0A,00,
570000,00000039,false,Rx,0,2,00,1B,00,00,00,00,00,00,
570000,00000378,false,Rx,0,8,07,50,EA,16,40,20,00,05,
570000,00000377,false,Rx,0,8,14,06,B5,74,CC,00,D2,0A,
0,00000158,false,Rx,0,8,12,07,05,20,12,07,BD,25,
0,00000188,false,Rx,0,6,04,04,80,08,00,5A,00,00,
575000,0000018E,false,Rx,0,3,00,04,2B,00,00,00,00,00,
575000,00000136,false,Rx,0,8,00,00,00,19,0E,00,00,33,
575000,0000013A,false,Rx,0,8,00,00,00,00,00,00,00,37,
576000,0000013F,false,Rx,0,8,02,58,02,5A,00,00,00,32,
576000,0000015A,false,Rx,0,8,00,00,00,43,00,00,00,3E,
576000,0000017C,false,Rx,0,8,00,00,05,88,48,00,00,30,
579000,00000156,false,Rx,0,6,00,01,00,01,07,03,00,00,
580000,00000097,false,Rx,0,8,80,60,20,01,FD,00,00,1A,
581000,00000039,false,Rx,0,2,00,2A,00,00,00,00,00,00,
0,00000158,false,Rx,0,8,12,03,05,21,12,03,BD,3B,
0,00000188,false,Rx,0,6,04,04,80,08,00,69,00,00,
584000,0000018E,false,Rx,0,3,00,02,3C,00,00,00,00,00,
585000,00000136,false,Rx,0,8,00,00,00,1A,0E,00,00,05,
585000,0000013A,false,Rx,0,8,00,00,00,00,00,00,00,0A,
585000,0000013F,false,Rx,0,8,02,5B,02,5A,FF,F6,00,0F,
585000,0000015A,false,Rx,0,8,00,00,00,43,00,00,00,01,
586000,0000017C,false,Rx,0,8,00,00,05,87,48,00,00,04,
586000,000001A4,false,Rx,0,8,00,69,00,00,00,00,00,0A,
586000,000001AA,false,Rx,0,8,7F,FF,00,00,00,00,69,00,
586000,000001B0,false,Rx,0,7,80,10,7F,FF,00,00,0F,00,
587000,000001D0,false,Rx,0,8,24,90,49,4C,92,C9,25,07,
587000,000001DC,false,Rx,0,4,02,05,87,26,00,00,00,00,
587000,000001E7,false,Rx,0,4,1A,00,68,09,00,00,00,00,
0,00000156,false,Rx,0,6,00,01,00,01,07,12,00,00,
0,000001C0,false,Rx,0,7,00,00,10,00,00,00,19,00,
589000,000001A6,false,Rx,0,8,02,00,00,49,63,80,00,16,
589000,00000294,false,Rx,0,8,00,15,00,03,FA,C4,20,14,
589000,00000097,false,Rx,0,8,80,60,20,01,FD,00,00,29,
592000,00000039,false,Rx,0,2,00,39,00,00,00,00,00,00,
0,00000158,false,Rx,0,8,11,FF,05,21,11,FF,BD,0A,
0,00000188,false,Rx,0,6,04,04,80,08,00,78,00,00,
0,0000018E,false,Rx,0,3,00,04,0D,00,00,00,00,00,
0,00000136,false,Rx,0,8,00,00,00,1A,0E,00,00,14,
596000,0000013A,false,Rx,0,8,00,00,00,00,00,00,00,19,
596000,0000013F,false,Rx,0,8,02,5B,02,5A,00,00,00,11,
596000,0000015A,false,Rx,0,8,00,00,00,43,00,00,00,10,
596000,0000017C,false,Rx,0,8,00,00,05,87,48,00,00,13,
598000,00000156,false,Rx,0,6,00,01,00,00,07,22,00,00,
600000,00000097,false,Rx,0,8,80,60,20,01,FD,00,00,38,
603000,00000039,false,Rx,0,2,00,0C,00,00,00,00,00,00,
603000,00000158,false,Rx,0,8,12,00,05,22,12,00,BD,12,
603000,00000188,false,Rx,0,6,04,04,80,08,00,4B,00,00,
605000,0000018E,false,Rx,0,3,00,07,19,00,00,00,00,00,
605000,00000136,false,Rx,0,8,00,00,00,1A,0E,00,00,23,
605000,0000013A,false,Rx,0,8,00,00,00,00,00,00,00,28,
605000,0000013F,false,Rx,0,8,02,5B,02,59,00,46,00,27,
606000,0000015A,false,Rx,0,8,00,00,00,43,00,00,00,2F,
606000,0000017C,false,Rx,0,8,00,00,05,8E,48,00,00,2B,
606000,000001A4,false,Rx,0,8,00,68,00,00,00,00,00,1A,
606000,000001AA,false,Rx,0,8,7F,FF,00,00,00,00,68,10,
607000,000001B0,false,Rx,0,7,80,10,7F,FF,00,00,1E,00,
607000,000001D0,false,Rx,0,8,24,A6,49,7C,93,19,25,BC,
607000,000001DC,false,Rx,0,4,02,05,8E,3E,00,00,00,00,
607000,000001E7,false,Rx,0,4,1A,00,68,18,00,00,00,00,
607000,0000033D,false,Rx,0,4,01,40,00,1F,00,00,00,00,
0,00000305,false,Rx,0,2,0E,02,00,00,00,00,00,00,
0,00000156,false,Rx,0,6,00,02,00,02,07,3E,00,00,
608000,000001C0,false,Rx,0,7,00,00,10,00,00,00,28,00,
0,000001A6,false,Rx,0,8,02,00,00,49,5F,80,00,2A,
0,00000097,false,Rx,0,8,80,60,20,01,FD,00,00,0B,
0,00000158,false,Rx,0,8,12,07,05,20,12,07,BD,25,
0,00000188,false,Rx,0,6,04,04,80,08,00,5A,00,00,
614000,00000039,false,Rx,0,2,00,1B,00,00,00,00,00,00,
0,0000018E,false,Rx,0,3,00,04,2B,00,00,00,00,00,
0,00000136,false,Rx,0,8,00,00,00,1A,0E,00,00,32,
615000,0000013A,false,Rx,0,8,00,00,00,00,00,00,00,37,
615000,0000013F,false,Rx,0,8,02,5F,02,59,00,00,00,3C,
615000,0000015A,false,Rx,0,8,00,00,00,43,00,00,00,3E,
616000,0000017C,false,Rx,0,8,00,00,05,8E,48,00,00,3A,
619000,00000156,false,Rx,0,6,00,02,00,03,07,00,00,00,
0,00000097,false,Rx,0,8,80,60,20,01,FD,00,00,1A,
0,0000030C,false,Rx,0,8,13,5B,4E,3C,01,60,90,31,
0,00000158,false,Rx,0,8,12,08,05,21,12,08,BD,31,
0,00000188,false,Rx,0,6,04,04,80,08,00,69,00,00,
0,00000039,false,Rx,0,2,00,2A,00,00,00,00,00,00,
0,00000136,false,Rx,0,8,00,00,00,1A,0E,00,00,05,
625000,0000013A,false,Rx,0,8,00,00,00,00,00,00,00,0A,
625000,0000013F,false,Rx,0,8,02,5F,02,5A,FF,F6,00,0B,
625000,0000015A,false,Rx,0,8,00,00,00,87,00,00,00,09,
0,0000017C,false,Rx,0,8,00,00,05,8D,48,00,00,0E,
0,0000018E,false,Rx,0,3,00,03,3B,00,00,00,00,00,
0,000001A4,false,Rx,0,8,00,68,00,00,00,00,00,29,
0,000001AA,false,Rx,0,8,7F,FF,00,00,00,00,68,2F,
0,000001B0,false,Rx,0,7,80,10,7F,FF,00,00,2D,00,
0,000001D0,false,Rx,0,8,24,C6,49,64,93,19,24,B4,
627000,000001DC,false,Rx,0,4,02,05,8D,02,00,00,00,00,
627000,000001E7,false,Rx,0,4,1A,00,68,27,00,00,00,00,
0,00000156,false,Rx,0,6,00,01,00,01,07,12,00,00,
0,000001C0,false,Rx,0,7,00,00,10,00,00,00,37,00,
630000,000001A6,false,Rx,0,8,02,00,00,4C,5E,80,00,37,
630000,00000294,false,Rx,0,8,00,15,00,03,FA,C4,20,23,
630000,00000097,false,Rx,0,8,80,60,20,01,FF,00,00,27,
0,00000158,false,Rx,0,8,12,08,05,22,12,08,BD,03,
0,00000188,false,Rx,0,6,04,04,80,08,00,78,00,00,
635000,0000018E,false,Rx,0,3,00,00,01,00,00,00,00,00,
636000,00000136,false,Rx,0,8,00,00,00,1A,0E,00,00,14,
636000,0000013A,false,Rx,0,8,00,00,00,00,00,00,00,19,
636000,0000013F,false,Rx,0,8,02,5F,02,5A,00,00,00,1D,
636000,0000015A,false,Rx,0,8,00,00,00,87,00,00,00,18,
636000,00000039,false,Rx,0,2,00,39,00,00,00,00,00,00,
637000,0000017C,false,Rx,0,8,00,00,05,8D,48,00,00,1D,
639000,00000156,false,Rx,0,6,00,01,00,00,07,22,00,00,
640000,00000097,false,Rx,0,8,80,60,20,01,FE,00,00,37,
0,00000158,false,Rx,0,8,12,0A,05,24,12,0A,BE,1B,
0,00000188,false,Rx,0,6,04,04,80,08,00,4B,00,00,
0,0000018E,false,Rx,0,3,00,01,1F,00,00,00,00,00,
0,00000136,false,Rx,0,8,00,00,00,1A,0E,00,00,23,
645000,0000013A,false,Rx,0,8,00,00,00,00,00,00,00,28,
645000,0000013F,false,Rx,0,8,02,5F,02,5A,FF,E2,00,2E,
646000,0000015A,false,Rx,0,8,00,00,00,43,00,00,00,2F,
646000,0000017C,false,Rx,0,8,00,00,05,8A,48,00,00,2F,
646000,000001A4,false,Rx,0,8,00,69,00,00,00,00,00,37,
0,000001AA,false,Rx,0,8,7F,FF,00,00,00,00,69,3D,
0,000001B0,false,Rx,0,7,80,10,7F,FF,00,00,3C,00,
0,00000039,false,Rx,0,2,00,0C,00,00,00,00,00,00,
647000,000001D0,false,Rx,0,8,24,BA,49,74,92,C9,25,00,
647000,000001DC,false,Rx,0,4,02,05,8A,14,00,00,00,00,
647000,000001E7,false,Rx,0,4,1A,00,68,36,00,00,00,00,
648000,00000320,false,Rx,0,3,00,00,12,00,00,00,00,00,
648000,00000324,false,Rx,0,8,7E,47,2D,16,3C,10,00,18,
648000,0000037C,false,Rx,0,8,D8,00,DA,34,00,01,00,1D,
648000,00000400,false,Rx,0,5,00,00,00,00,31,00,00,00,
648000,00000156,false,Rx,0,6,00,01,00,01,07,30,00,00,
649000,00000406,false,Rx,0,5,00,00,00,01,1C,00,00,00,
649000,000001C0,false,Rx,0,7,00,00,10,00,00,00,0A,00,
0,000001A6,false,Rx,0,8,02,00,00,4C,60,80,00,07,
0,0000040C,false,Rx,0,8,7E,00,34,28,00,00,00,3F,
649000,00000097,false,Rx,0,8,80,60,10,01,FC,00,00,0D,
649000,00000454,false,Rx,0,6,37,F5,02,29,90,34,00,00,
649000,00000465,false,Rx,0,7,FF,FF,FF,FF,FF,FF,32,00,
651000,000006C1,false,Rx,0,1,23,00,00,00,00,00,00,00,
0,00000158,false,Rx,0,8,12,0F,05,24,12,0F,BE,20,
0,00000188,false,Rx,0,6,04,04,80,08,00,5A,00,00,
655000,00000136,false,Rx,0,8,00,00,00,1A,0E,00,00,32,
655000,0000013A,false,Rx,0,8,00,00,00,00,00,00,00,37,
655000,0000013F,false,Rx,0,8,02,5F,02,5D,00,00,00,38,
655000,0000015A,false,Rx,0,8,00,00,00,43,00,00,00,3E,
656000,0000017C,false,Rx,0,8,00,00,05,8A,48,00,00,3E,
656000,0000018E,false,Rx,0,3,00,05,2A,00,00,00,00,00,
658000,00000039,false,Rx,0,2,00,1B,00,00,00,00,00,00,
658000,00000156,false,Rx,0,6,00,01,00,00,07,04,00,00,
659000,00000097,false,Rx,0,8,80,60,20,01,FC,00,00,1B,
0,00000158,false,Rx,0,8,12,0C,05,23,12,0C,BE,36,
0,00000188,false,Rx,0,6,04,04,80,08,00,69,00,00,
0,00000136,false,Rx,0,8,00,00,00,1A,0E,00,00,05,
0,0000013A,false,Rx,0,8,00,00,00,00,00,00,00,0A,
666000,0000013F,false,Rx,0,8,02,5F,02,5D,00,00,00,0B,
666000,0000015A,false,Rx,0,8,00,00,00,43,00,00,00,01,
0,0000017C,false,Rx,0,8,00,00,05,8A,48,00,00,01,
0,0000018E,false,Rx,0,3,00,04,3A,00,00,00,00,00,
666000,000001A4,false,Rx,0,8,00,68,00,00,00,00,00,0B,
667000,000001AA,false,Rx,0,8,7F,FF,00,00,00,00,68,01,
667000,000001B0,false,Rx,0,7,80,10,7F,FF,00,00,0F,00,
0,000001D0,false,Rx,0,8,24,CE,49,7C,92,C9,25,C7,
0,000001DC,false,Rx,0,4,02,05,8A,23,00,00,00,00,
667000,000001E7,false,Rx,0,4,1A,00,68,09,00,00,00,00,
669000,00000156,false,Rx,0,6,00,02,00,00,07,12,00,00,
0,000001C0,false,Rx,0,7,00,00,10,00,00,00,19,00,
0,00000039,false,Rx,0,2,00,2A,00,00,00,00,00,00,
669000,000001A6,false,Rx,0,8,02,00,00,4C,67,80,00,1F,
670000,00000294,false,Rx,0,8,00,15,00,03,FA,C4,20,32,
670000,00000097,false,Rx,0,8,80,60,10,01,FD,00,00,2A,
670000,00000309,false,Rx,0,8,12,F6,00,00,00,30,00,5C,
670000,00000374,false,Rx,0,7,00,00,00,00,00,00,19,00,
671000,00000377,false,Rx,0,8,18,06,B5,74,CC,00,D2,15,
671000,00000378,false,Rx,0,8,07,50,EA,16,40,20,00,14,
0,00000158,false,Rx,0,8,12,0F,05,24,12,0F,BE,02,
0,00000188,false,Rx,0,6,04,04,80,08,00,78,00,00,
674000,00000421,false,Rx,0,5,00,00,00,01,2E,00,00,00,
675000,0000018E,false,Rx,0,3,00,00,01,00,00,00,00,00,
675000,00000136,false,Rx,0,8,00,00,00,1A,0E,00,00,14,
675000,0000013A,false,Rx,0,8,00,00,00,00,00,00,00,19,
676000,0000013F,false,Rx,0,8,02,5F,02,5D,00,00,00,1A,
676000,0000015A,false,Rx,0,8,00,00,00,43,00,00,00,10,
676000,0000017C,false,Rx,0,8,00,00,05,8A,48,00,00,10,
679000,00000156,false,Rx,0,6,00,02,00,01,07,20,00,00,
679000,00000097,false,Rx,0,8,80,60,10,01,FD,00,00,39,
679000,00000039,false,Rx,0,2,00,39,00,00,00,00,00,00,
0,00000158,false,Rx,0,8,12,13,05,24,12,13,BE,17,
0,00000188,false,Rx,0,6,04,04,80,08,00,4B,00,00,
0,00000136,false,Rx,0,8,00,00,00,1A,0E,00,00,23,
0,0000013A,false,Rx,0,8,00,00,00,00,00,00,00,28,
686000,0000013F,false,Rx,0,8,02,5F,02,5C,00,28,00,20,
0,0000015A,false,Rx,0,8,00,00,00,43,00,00,00,2F,
0,0000017C,false,Rx,0,8,00,00,05,8E,48,00,00,2B,
0,0000018E,false,Rx,0,3,00,06,1A,00,00,00,00,00,
687000,000001A4,false,Rx,0,8,00,68,00,00,00,00,00,1A,
687000,000001AA,false,Rx,0,8,7F,FF,00,00,00,00,68,10,
687000,000001B0,false,Rx,0,7,80,10,7F,FF,00,00,1E,00,
687000,000001D0,false,Rx,0,8,24,CA,49,74,93,49,27,13,
688000,000001DC,false,Rx,0,4,02,05,8E,3E,00,00,00,00,
688000,000001E7,false,Rx,0,4,1A,00,68,18,00,00,00,00,
688000,00000156,false,Rx,0,6,00,01,00,01,07,30,00,00,
689000,000001C0,false,Rx,0,7,00,00,10,00,00,00,28,00,
689000,000001A6,false,Rx,0,8,02,00,00,4C,68,80,00,2D,
689000,00000097,false,Rx,0,8,80,60,10,01,FC,00,00,0D,
690000,00000039,false,Rx,0,2,00,0C,00,00,00,00,00,00,
693000,00000158,false,Rx,0,8,12,10,05,25,12,10,BE,2B,
693000,00000188,false,Rx,0,6,04,04,80,08,00,5A,00,00,
694000,00000136,false,Rx,0,8,00,00,00,1A,0E,00,00,32,
696000,0000013A,false,Rx,0,8,00,00,00,00,00,00,00,37,
696000,0000013F,false,Rx,0,8,02,5F,02,5C,00,00,00,39,
696000,0000015A,false,Rx,0,8,00,00,00,43,00,00,00,3E,
696000,0000017C,false,Rx,0,8,00,00,05,8E,48,00,00,3A,
696000,0000018E,false,Rx,0,3,00,00,2F,00,00,00,00,00,
698000,00000156,false,Rx,0,6,00,02,00,02,07,01,00,00,
699000,00000097,false,Rx,0,8,80,20,10,01,FD,00,00,1F,
702000,00000039,false,Rx,0,2,00,1B,00,00,00,00,00,00,
703000,00000158,false,Rx,0,8,12,10,05,25,12,10,BE,3A,
703000,00000188,false,Rx,0,6,04,04,80,08,00,69,00,00,
0,00000136,false,Rx,0,8,00,00,00,1A,0E,00,00,05,
0,0000013A,false,Rx,0,8,00,00,00,00,00,00,00,0A,
706000,0000013F,false,Rx,0,8,02,5F,02,5C,00,00,00,0C,
706000,0000015A,false,Rx,0,8,00,00,00,87,00,00,00,09,
706000,0000017C,false,Rx,0,8,00,00,05,8E,48,00,00,0D,
706000,0000018E,false,Rx,0,3,00,03,3B,00,00,00,00,00,
706000,000001A4,false,Rx,0,8,00,68,00,00,00,00,00,29,
0,000001AA,false,Rx,0,8,7F,FF,00,00,00,00,68,2F,
0,000001B0,false,Rx,0,7,80,10,7F,FF,00,00,2D,00,
707000,000001D0,false,Rx,0,8,24,C2,49,84,93,39,27,1B,
707000,000001DC,false,Rx,0,4,02,05,8E,01,00,00,00,00,
707000,000001E7,false,Rx,0,4,1A,00,68,27,00,00,00,00,
708000,0000033D,false,Rx,0,4,01,40,00,2E,00,00,00,00,
709000,00000156,false,Rx,0,6,00,02,00,03,07,1F,00,00,
709000,000001C0,false,Rx,0,7,00,00,10,00,00,00,37,00,
709000,000001A6,false,Rx,0,8,02,00,00,4C,57,80,00,3E,
709000,00000294,false,Rx,0,8,00,15,00,03,FA,C4,20,05,
710000,00000097,false,Rx,0,8,80,20,10,01,FE,00,00,2D,
713000,00000039,false,Rx,0,2,00,2A,00,00,00,00,00,00,
713000,00000305,false,Rx,0,2,0E,11,00,00,00,00,00,00,
714000,00000158,false,Rx,0,8,12,14,05,25,12,14,BE,05,
714000,00000188,false,Rx,0,6,04,04,80,08,00,78,00,00,
715000,00000136,false,Rx,0,8,00,00,00,1A,0E,00,00,14,
716000,0000013A,false,Rx,0,8,00,00,00,00,00,00,00,19,
716000,0000013F,false,Rx,0,8,02,5F,02,5C,00,00,00,1B,
716000,0000015A,false,Rx,0,8,00,00,00,87,00,00,00,18,
0,0000017C,false,Rx,0,8,00,00,05,8E,48,00,00,1C,
0,0000018E,false,Rx,0,3,00,06,0B,00,00,00,00,00,
719000,00000156,false,Rx,0,6,00,01,00,00,07,22,00,00,
719000,00000097,false,Rx,0,8,80,20,10,01,FD,00,00,3D,
720000,0000030C,false,Rx,0,8,13,5F,4E,3C,01,60,90,00,
723000,00000158,false,Rx,0,8,12,17,05,26,12,17,BE,1D,
723000,00000188,false,Rx,0,6,04,04,80,08,00,4B,00,00,
724000,00000039,false,Rx,0,2,00,39,00,00,00,00,00,00,
725000,00000136,false,Rx,0,8,00,00,00,1A,0E,00,00,23,
725000,0000013A,false,Rx,0,8,00,00,00,00,00,00,00,28,
725000,0000013F,false,Rx,0,8,02,5F,02,5C,00,00,00,2A,
725000,0000015A,false,Rx,0,8,00,00,00,87,00,00,00,27,
726000,0000017C,false,Rx,0,8,00,00,05,8E,48,00,00,2B,
726000,0000018E,false,Rx,0,3,00,05,1B,00,00,00,00,00,
726000,000001A4,false,Rx,0,8,00,68,00,00,00,00,00,38,
726000,000001AA,false,Rx,0,8,7F,FF,00,00,00,00,68,3E,
726000,000001B0,false,Rx,0,7,80,10,7F,FF,00,00,3C,00,
727000,000001D0,false,Rx,0,8,24,D8,49,A4,93,39,27,03,
727000,000001DC,false,Rx,0,4,02,05,8E,10,00,00,00,00,
727000,000001E7,false,Rx,0,4,1A,00,68,36,00,00,00,00,
728000,00000156,false,Rx,0,6,00,02,00,00,07,30,00,00,
728000,000001C0,false,Rx,0,7,00,00,10,00,00,00,0A,00,
730000,000001A6,false,Rx,0,8,02,00,00,51,52,80,00,00,
730000,00000097,false,Rx,0,8,80,20,10,01,FC,00,00,01,
733000,00000158,false,Rx,0,8,12,1C,05,29,12,1C,BE,2F,
733000,00000188,false,Rx,0,6,04,04,80,08,00,5A,00,00,
0,00000136,false,Rx,0,8,00,00,00,1A,0E,00,00,32,
0,00000039,false,Rx,0,2,00,0C,00,00,00,00,00,00,
736000,0000013A,false,Rx,0,8,00,00,00,00,00,00,00,37,
736000,0000013F,false,Rx,0,8,02,5E,02,5B,00,32,00,36,
736000,0000015A,false,Rx,0,8,FF,FF,00,87,00,00,00,3A,
736000,0000017C,false,Rx,0,8,00,00,05,93,48,00,00,34,
736000,0000018E,false,Rx,0,3,00,06,29,00,00,00,00,00,
739000,00000156,false,Rx,0,6,00,02,00,01,07,02,00,00,
739000,00000097,false,Rx,0,8,80,20,00,01,FE,00,00,1F,
743000,00000158,false,Rx,0,8,12,20,05,29,12,20,BE,34,
743000,00000188,false,Rx,0,6,04,04,80,08,00,69,00,00,
744000,00000136,false,Rx,0,8,00,00,00,1A,0E,00,00,05,
744000,0000013A,false,Rx,0,8,00,00,00,00,00,00,00,0A,
746000,0000013F,false,Rx,0,8,02,5E,02,5B,00,00,00,0E,
746000,0000015A,false,Rx,0,8,FF,F9,00,87,00,00,00,03,
746000,0000017C,false,Rx,0,8,00,00,05,93,48,00,00,07,
746000,00000039,false,Rx,0,2,00,1B,00,00,00,00,00,00,
746000,0000018E,false,Rx,0,3,00,04,3A,00,00,00,00,00,
746000,000001A4,false,Rx,0,8,00,68,00,00,00,00,00,0B,
747000,000001AA,false,Rx,0,8,7F,FF,00,00,00,00,68,01,
747000,000001B0,false,Rx,0,7,80,10,7F,FF,00,00,0F,00,
747000,000001D0,false,Rx,0,8,24,CE,49,AC,93,99,27,00,
747000,000001DC,false,Rx,0,4,02,05,93,29,00,00,00,00,
747000,000001E7,false,Rx,0,4,1A,00,68,09,00,00,00,00,
747000,00000320,false,Rx,0,3,00,00,21,00,00,00,00,00,
747000,00000324,false,Rx,0,8,7E,47,2D,17,3C,03,00,24,
747000,0000037C,false,Rx,0,8,E2,00,E3,34,00,01,00,27,
749000,000003D7,false,Rx,0,8,B0,00,00,00,00,00,00,7F,
749000,00000156,false,Rx,0,6,00,01,00,01,07,12,00,00,
749000,000001C0,false,Rx,0,7,00,00,10,00,00,00,19,00,
749000,000001A6,false,Rx,0,8,02,00,00,51,61,80,00,1F,
749000,00000294,false,Rx,0,8,00,15,00,03,FA,C4,20,14,
750000,00000097,false,Rx,0,8,80,20,10,01,FE,00,00,2D,
0,00000158,false,Rx,0,8,12,1D,05,29,12,1D,BE,0F,
0,00000188,false,Rx,0,6,04,04,80,08,00,78,00,00,
755000,00000136,false,Rx,0,8,00,00,00,1A,0E,00,00,14,
755000,0000013A,false,Rx,0,8,00,00,00,00,00,00,00,19,
755000,0000013F,false,Rx,0,8,02,5E,02,5A,00,0A,00,14,
755000,0000015A,false,Rx,0,8,FF,F3,00,87,00,00,00,18,
755000,0000017C,false,Rx,0,8,00,00,05,94,48,00,00,15,
755000,0000018E,false,Rx,0,3,00,05,0C,00,00,00,00,00,
757000,00000039,false,Rx,0,2,00,2A,00,00,00,00,00,00,
758000,00000156,false,Rx,0,6,00,02,00,00,07,21,00,00,
759000,00000097,false,Rx,0,8,80,20,10,01,FD,00,00,3D,
763000,00000158,false,Rx,0,8,12,1A,05,27,12,1A,BE,16,
764000,00000188,false,Rx,0,6,04,04,80,08,00,4B,00,00,
765000,00000136,false,Rx,0,8,00,00,00,1A,0E,00,00,23,
765000,0000013A,false,Rx,0,8,00,00,00,00,00,00,00,28,
766000,0000013F,false,Rx,0,8,02,5E,02,5A,00,00,00,2D,
766000,0000015A,false,Rx,0,8,FF,EE,00,87,00,00,00,2D,
766000,0000017C,false,Rx,0,8,00,00,05,94,48,00,00,24,
766000,0000018E,false,Rx,0,3,00,09,17,00,00,00,00,00,
766000,000001A4,false,Rx,0,8,00,68,00,00,00,00,00,1A,
0,000001AA,false,Rx,0,8,7F,FF,00,00,00,00,68,10,
0,000001B0,false,Rx,0,7,80,10,7F,FF,00,00,1E,00,
767000,000001D0,false,Rx,0,8,24,D6,49,C8,93,E1,26,EF,
767000,000001DC,false,Rx,0,4,02,05,94,37,00,00,00,00,
767000,000001E7,false,Rx,0,4,1A,00,68,18,00,00,00,00,
768000,00000039,false,Rx,0,2,00,39,00,00,00,00,00,00,
769000,00000156,false,Rx,0,6,00,02,00,01,07,3F,00,00,
769000,000001C0,false,Rx,0,7,00,00,10,00,00,00,28,00,
769000,000001A6,false,Rx,0,8,02,00,00,51,4E,80,00,23,
769000,00000309,false,Rx,0,8,13,04,00,00,00,30,00,6B,
769000,00000097,false,Rx,0,8,80,20,10,01,FC,00,00,01,
769000,00000374,false,Rx,0,7,00,00,00,00,00,00,28,00,
770000,00000377,false,Rx,0,8,18,06,B5,74,CC,00,D2,24,
770000,00000378,false,Rx,0,8,07,50,EA,16,40,20,00,23,
770000,00000405,false,Rx,0,8,00,00,00,00,00,00,00,0F,
770000,00000428,false,Rx,0,7,00,00,00,00,00,00,0A,00,
0,00000158,false,Rx,0,8,12,17,05,28,12,17,BE,2A,
0,00000188,false,Rx,0,6,04,04,80,08,00,5A,00,00,
775000,00000136,false,Rx,0,8,00,00,00,1A,0E,00,00,32,
775000,0000013A,false,Rx,0,8,00,00,00,00,00,00,00,37,
775000,0000013F,false,Rx,0,8,02,5D,02,5A,00,32,00,38,
775000,0000015A,false,Rx,0,8,FF,EC,00,87,00,00,00,3E,
0,0000017C,false,Rx,0,8,00,00,05,99,48,00,00,3E,
0,0000018E,false,Rx,0,3,00,05,2A,00,00,00,00,00,
0,00000156,false,Rx,0,6,00,01,00,01,07,03,00,00,
0,00000039,false,Rx,0,2,00,0C,00,00,00,00,00,00,
780000,00000097,false,Rx,0,8,80,20,10,01,FD,00,00,1F,
0,00000158,false,Rx,0,8,12,1C,05,27,12,1C,BE,30,
0,00000188,false,Rx,0,6,04,04,80,08,00,69,00,00,
0,00000136,false,Rx,0,8,00,00,00,1A,0E,00,00,05,
0,0000013A,false,Rx,0,8,00,00,00,00,00,00,00,0A,
785000,0000013F,false,Rx,0,8,02,5D,02,5A,00,00,00,00,
785000,0000015A,false,Rx,0,8,FF,E9,00,87,00,00,00,04,
786000,0000017C,false,Rx,0,8,00,00,05,99,48,00,00,01,
786000,0000018E,false,Rx,0,3,00,03,3B,00,00,00,00,00,
786000,000001A4,false,Rx,0,8,00,68,00,00,00,00,00,29,
0,000001AA,false,Rx,0,8,7F,FF,00,00,00,00,68,2F,
0,000001B0,false,Rx,0,7,80,10,7F,FF,00,00,2D,00,
787000,000001D0,false,Rx,0,8,24,E4,49,BC,93,C1,26,58,
787000,000001DC,false,Rx,0,4,02,05,99,05,00,00,00,00,
787000,000001E7,false,Rx,0,4,1A,00,68,27,00,00,00,00,
789000,00000156,false,Rx,0,6,00,01,00,01,07,12,00,00,
789000,000001C0,false,Rx,0,7,00,00,10,00,00,00,37,00,
789000,000001A6,false,Rx,0,8,02,00,00,51,4E,80,00,32,
0,00000294,false,Rx,0,8,00,15,00,03,FA,C4,20,23,
0,00000097,false,Rx,0,8,80,60,10,01,FF,00,00,28,
0,00000039,false,Rx,0,2,00,1B,00,00,00,00,00,00,
0,00000158,false,Rx,0,8,12,1C,05,28,12,1C,BE,02,
0,00000188,false,Rx,0,6,04,04,80,08,00,78,00,00,
0,00000136,false,Rx,0,8,00,00,00,1A,0E,00,00,14,
0,0000013A,false,Rx,0,8,00,00,00,00,00,00,00,19,
796000,0000013F,false,Rx,0,8,02,5D,02,5A,00,14,00,1A,
796000,0000015A,false,Rx,0,8,FF,E7,00,87,00,00,00,15,
796000,0000017C,false,Rx,0,8,00,00,05,9B,48,00,00,1E,
796000,0000018E,false,Rx,0,3,00,03,0E,00,00,00,00,00,
799000,00000156,false,Rx,0,6,00,01,00,01,07,21,00,00,
799000,00000097,false,Rx,0,8,80,60,10,02,00,00,00,34,
801000,00000039,false,Rx,0,2,00,2A,00,00,00,00,00,00,
0,00000158,false,Rx,0,8,12,1B,05,29,12,1B,BE,12,
0,00000188,false,Rx,0,6,04,04,80,08,00,4B,00,00,
0,00000136,false,Rx,0,8,00,00,00,1A,0E,00,00,23,
0,0000013A,false,Rx,0,8,00,00,00,00,00,00,00,28,
805000,0000013F,false,Rx,0,8,02,5C,02,5A,00,00,00,2F,
805000,0000015A,false,Rx,0,8,FF,F8,00,87,00,00,00,22,
0,0000017C,false,Rx,0,8,00,00,05,9B,48,00,00,2D,
0,0000018E,false,Rx,0,3,00,02,1E,00,00,00,00,00,
806000,000001A4,false,Rx,0,8,00,68,00,00,00,00,00,38,
806000,000001AA,false,Rx,0,8,7F,FF,00,00,00,00,68,3E,
806000,000001B0,false,Rx,0,7,80,10,7F,FF,00,00,3C,00,
806000,000001D0,false,Rx,0,8,24,E8,49,F0,93,61,26,AD,
806000,000001DC,false,Rx,0,4,02,05,9B,12,00,00,00,00,
806000,000001E7,false,Rx,0,4,1A,00,68,36,00,00,00,00,
806000,0000033D,false,Rx,0,4,01,40,00,3D,00,00,00,00,
808000,00000156,false,Rx,0,6,00,01,00,01,07,30,00,00,
808000,000001C0,false,Rx,0,7,00,00,10,00,00,00,0A,00,
809000,000001A6,false,Rx,0,8,02,00,00,51,49,80,00,0A,
809000,00000097,false,Rx,0,8,80,60,20,01,FF,00,00,09,
812000,00000039,false,Rx,0,2,00,39,00,00,00,00,00,00,
0,00000158,false,Rx,0,8,12,23,05,2B,12,23,BE,2D,
0,00000188,false,Rx,0,6,04,04,80,08,00,5A,00,00,
0,00000136,false,Rx,0,8,00,00,00,1A,0E,00,00,32,
0,0000013A,false,Rx,0,8,00,00,00,00,00,00,00,37,
816000,0000013F,false,Rx,0,8,02,58,02,59,00,1E,00,34,
0,0000015A,false,Rx,0,8,00,00,00,87,00,00,00,36,
0,0000017C,false,Rx,0,8,00,00,05,9E,48,00,00,39,
0,0000018E,false,Rx,0,3,00,03,2C,00,00,00,00,00,
818000,00000305,false,Rx,0,2,0E,20,00,00,00,00,00,00,
819000,00000156,false,Rx,0,6,00,01,00,02,07,02,00,00,
0,00000097,false,Rx,0,8,80,60,10,01,FF,00,00,19,
0,0000030C,false,Rx,0,8,13,64,4E,3C,01,60,90,19,
823000,00000039,false,Rx,0,2,00,0C,00,00,00,00,00,00,
823000,00000158,false,Rx,0,8,12,30,05,2C,12,30,BE,3F,
823000,00000188,false,Rx,0,6,04,04,80,08,00,69,00,00,
0,00000136,false,Rx,0,8,00,00,00,1A,0E,00,00,05,
0,0000013A,false,Rx,0,8,00,00,00,00,00,00,00,0A,
826000,0000013F,false,Rx,0,8,02,58,02,59,00,00,00,06,
826000,0000015A,false,Rx,0,8,00,00,00,87,00,00,00,09,
826000,0000017C,false,Rx,0,8,00,00,05,9E,48,00,00,0C,
826000,0000018E,false,Rx,0,3,00,04,3A,00,00,00,00,00,
826000,000001A4,false,Rx,0,8,00,68,00,00,00,00,00,0B,
827000,000001AA,false,Rx,0,8,7F,FF,00,00,00,00,68,01,
827000,000001B0,false,Rx,0,7,80,10,7F,FF,00,00,0F,00,
0,000001D0,false,Rx,0,8,24,FC,49,F8,93,89,26,E2,
0,000001DC,false,Rx,0,4,02,05,9E,2E,00,00,00,00,
827000,000001E7,false,Rx,0,4,1A,00,68,09,00,00,00,00,
828000,00000156,false,Rx,0,6,00,01,00,01,07,12,00,00,
828000,000001C0,false,Rx,0,7,00,00,10,00,00,00,19,00,
828000,000001A6,false,Rx,0,8,02,00,00,59,58,80,00,11,
830000,00000294,false,Rx,0,8,00,15,00,03,FA,C4,20,32,
830000,00000097,false,Rx,0,8,80,60,10,01,FF,00,00,28,
0,00000158,false,Rx,0,8,12,27,05,2B,12,27,BE,07,
0,00000188,false,Rx,0,6,04,04,80,08,00,78,00,00,
834000,00000039,false,Rx,0,2,00,1B,00,00,00,00,00,00,
0,00000136,false,Rx,0,8,00,00,00,1A,0E,00,00,14,
0,0000013A,false,Rx,0,8,00,00,00,00,00,00,00,19,
835000,0000013F,false,Rx,0,8,02,58,02,59,FF,F6,00,12,
835000,0000015A,false,Rx,0,8,00,00,00,43,00,00,00,10,
0,0000017C,false,Rx,0,8,00,00,05,9D,48,00,00,1C,
0,0000018E,false,Rx,0,3,00,07,0A,00,00,00,00,00,
838000,00000156,false,Rx,0,6,00,01,00,01,07,21,00,00,
839000,00000097,false,Rx,0,8,80,60,10,02,01,00,00,33,
0,00000158,false,Rx,0,8,12,1D,05,2A,12,1D,BE,1D,
0,00000188,false,Rx,0,6,04,04,80,08,00,4B,00,00,
844000,0000018E,false,Rx,0,3,00,07,19,00,00,00,00,00,
844000,00000039,false,Rx,0,2,00,2A,00,00,00,00,00,00,
845000,00000136,false,Rx,0,8,00,00,00,1A,0E,00,00,23,
845000,0000013A,false,Rx,0,8,00,00,00,00,00,00,00,28,
845000,0000013F,false,Rx,0,8,02,58,02,59,00,00,00,24,
845000,0000015A,false,Rx,0,8,00,00,00,87,00,00,00,27,
0,0000017C,false,Rx,0,8,00,00,05,9D,48,00,00,2B,
0,000001A4,false,Rx,0,8,00,69,00,00,00,00,00,19,
0,000001AA,false,Rx,0,8,7F,FF,00,00,00,00,69,1F,
846000,000001B0,false,Rx,0,7,80,10,7F,FF,00,00,1E,00,
846000,000001D0,false,Rx,0,8,24,F8,49,A0,94,41,28,DD,
848000,000001DC,false,Rx,0,4,02,05,9D,3E,00,00,00,00,
0,000001E7,false,Rx,0,4,1A,00,68,18,00,00,00,00,
0,00000320,false,Rx,0,3,00,00,30,00,00,00,00,00,
848000,00000324,false,Rx,0,8,7E,47,2D,18,3C,03,00,32,
848000,0000037C,false,Rx,0,8,E2,00,E3,34,00,01,00,36,
849000,00000156,false,Rx,0,6,00,01,00,00,07,31,00,00,
849000,000001C0,false,Rx,0,7,00,00,10,00,00,00,28,00,
849000,000001A6,false,Rx,0,8,02,00,00,59,59,80,00,2F,
850000,00000097,false,Rx,0,8,80,60,10,02,01,00,00,06,
0,00000158,false,Rx,0,8,12,1F,05,29,12,1F,BE,29,
0,00000188,false,Rx,0,6,04,04,80,08,00,5A,00,00,
854000,0000018E,false,Rx,0,3,00,02,2D,00,00,00,00,00,
855000,00000136,false,Rx,0,8,00,00,00,1A,0E,00,00,32,
855000,0000013A,false,Rx,0,8,00,00,00,00,00,00,00,37,
855000,0000013F,false,Rx,0,8,02,58,02,56,00,32,00,31,
855000,0000015A,false,Rx,0,8,00,00,00,87,00,00,00,36,
0,0000017C,false,Rx,0,8,00,00,05,A2,48,00,00,34,
0,00000039,false,Rx,0,2,00,39,00,00,00,00,00,00,
859000,00000156,false,Rx,0,6,00,01,00,00,07,04,00,00,
859000,00000097,false,Rx,0,8,80,60,10,01,FF,00,00,19,
0,00000158,false,Rx,0,8,12,26,05,2A,12,26,BE,37,
0,00000188,false,Rx,0,6,04,04,80,08,00,69,00,00,
865000,0000018E,false,Rx,0,3,00,08,36,00,00,00,00,00,
0,00000136,false,Rx,0,8,00,00,00,1A,0E,00,00,05,
0,0000013A,false,Rx,0,8,00,00,00,00,00,00,00,0A,
866000,0000013F,false,Rx,0,8,02,58,02,56,00,00,00,09,
866000,0000015A,false,Rx,0,8,00,00,00,CA,00,00,00,02,
866000,0000017C,false,Rx,0,8,00,00,05,A2,48,00,00,07,
866000,000001A4,false,Rx,0,8,00,68,00,00,00,00,00,29,
867000,000001AA,false,Rx,0,8,7F,FF,00,00,00,00,68,2F,
867000,000001B0,false,Rx,0,7,80,10,7F,FF,00,00,2D,00,
0,000001D0,false,Rx,0,8,24,E0,49,C0,93,E9,28,C4,
0,00000039,false,Rx,0,2,00,0C,00,00,00,00,00,00,
868000,000001DC,false,Rx,0,4,02,05,A2,0B,00,00,00,00,
868000,000001E7,false,Rx,0,4,1A,00,68,27,00,00,00,00,
869000,00000156,false,Rx,0,6,00,01,00,00,07,13,00,00,
869000,000001C0,false,Rx,0,7,00,00,10,00,00,00,37,00,
870000,000001A6,false,Rx,0,8,02,00,00,59,58,80,00,3F,
870000,00000294,false,Rx,0,8,00,15,00,03,FA,C4,20,05,
870000,00000097,false,Rx,0,8,80,60,10,01,FE,00,00,29,
870000,00000309,false,Rx,0,8,13,06,00,00,00,30,00,78,
870000,00000374,false,Rx,0,7,00,00,00,00,00,00,37,00,
870000,00000377,false,Rx,0,8,1C,06,B5,74,CC,00,D2,3F,
871000,00000378,false,Rx,0,8,07,50,EA,16,40,20,00,32,
0,00000158,false,Rx,0,8,12,2D,05,2B,12,2D,BE,0B,
0,00000188,false,Rx,0,6,04,04,80,08,00,78,00,00,
875000,00000136,false,Rx,0,8,00,00,00,1A,0E,00,00,14,
876000,0000013A,false,Rx,0,8,00,00,00,00,00,00,00,19,
876000,0000013F,false,Rx,0,8,02,57,02,56,00,32,00,14,
876000,0000015A,false,Rx,0,8,00,00,00,CA,00,00,00,11,
876000,0000017C,false,Rx,0,8,00,00,05,A7,48,00,00,11,
876000,0000018E,false,Rx,0,3,00,06,0B,00,00,00,00,00,
878000,00000039,false,Rx,0,2,00,1B,00,00,00,00,00,00,
879000,00000156,false,Rx,0,6,00,01,00,00,07,22,00,00,
880000,00000097,false,Rx,0,8,80,60,10,01,FF,00,00,37,
0,00000158,false,Rx,0,8,12,2B,05,2C,12,2B,BE,1D,
0,00000188,false,Rx,0,6,04,04,80,08,00,4B,00,00,
885000,00000136,false,Rx,0,8,00,00,00,1A,0E,00,00,23,
885000,0000013A,false,Rx,0,8,00,00,00,00,00,00,00,28,
886000,0000013F,false,Rx,0,8,02,57,02,56,00,00,00,28,
886000,0000015A,false,Rx,0,8,00,00,00,CA,00,00,00,20,
886000,0000017C,false,Rx,0,8,00,00,05,A7,48,00,00,20,
886000,0000018E,false,Rx,0,3,00,0A,16,00,00,00,00,00,
886000,000001A4,false,Rx,0,8,00,68,00,00,00,00,00,38,
886000,000001AA,false,Rx,0,8,7F,FF,00,00,00,00,68,3E,
886000,000001B0,false,Rx,0,7,80,10,7F,FF,00,00,3C,00,
887000,000001D0,false,Rx,0,8,24,EC,49,D8,94,09,28,35,
0,000001DC,false,Rx,0,4,02,05,A7,15,00,00,00,00,
0,000001E7,false,Rx,0,4,1A,00,68,36,00,00,00,00,
889000,00000156,false,Rx,0,6,00,01,00,00,07,31,00,00,
0,000001C0,false,Rx,0,7,00,00,10,00,00,00,0A,00,
0,00000039,false,Rx,0,2,00,2A,00,00,00,00,00,00,
0,000001A6,false,Rx,0,8,02,00,00,59,49,80,00,02,
0,00000097,false,Rx,0,8,80,60,10,01,FD,00,00,0C,
0,00000158,false,Rx,0,8,12,30,05,2D,12,30,BE,2F,
0,00000188,false,Rx,0,6,04,04,80,08,00,5A,00,00,
0,00000136,false,Rx,0,8,00,00,00,1A,0E,00,00,32,
0,0000013A,false,Rx,0,8,00,00,00,00,00,00,00,37,
895000,0000013F,false,Rx,0,8,02,57,02,55,00,1E,00,39,
895000,0000015A,false,Rx,0,8,00,00,00,CA,00,00,00,3F,
0,0000017C,false,Rx,0,8,00,00,05,AA,48,00,00,3C,
0,0000018E,false,Rx,0,3,00,0C,23,00,00,00,00,00,
898000,00000156,false,Rx,0,6,00,02,00,01,07,02,00,00,
899000,00000097,false,Rx,0,8,80,20,00,01,FD,00,00,10,
899000,00000039,false,Rx,0,2,00,39,00,00,00,00,00,00,
0,00000158,false,Rx,0,8,12,31,05,2E,12,31,BE,3B,
0,00000188,false,Rx,0,6,04,04,80,08,00,69,00,00,
905000,00000136,false,Rx,0,8,00,00,00,1A,0E,00,00,05,
905000,0000013A,false,Rx,0,8,00,00,00,00,00,00,00,0A,
905000,0000013F,false,Rx,0,8,02,57,02,55,00,00,00,0B,
905000,0000015A,false,Rx,0,8,00,00,00,CA,00,00,00,02,
905000,0000017C,false,Rx,0,8,00,00,05,AA,48,00,00,0F,
906000,0000018E,false,Rx,0,3,00,02,3C,00,00,00,00,00,
906000,000001A4,false,Rx,0,8,00,68,00,00,00,00,00,0B,
906000,000001AA,false,Rx,0,8,7F,FF,00,00,00,00,68,01,
906000,000001B0,false,Rx,0,7,80,10,7F,FF,00,00,0F,00,
906000,000001D0,false,Rx,0,8,24,F8,49,F0,94,51,27,F6,
906000,000001DC,false,Rx,0,4,02,05,AA,21,00,00,00,00,
906000,000001E7,false,Rx,0,4,1A,00,68,09,00,00,00,00,
906000,0000033D,false,Rx,0,4,01,40,00,00,00,00,00,00,
908000,00000156,false,Rx,0,6,00,01,00,01,07,12,00,00,
908000,000001C0,false,Rx,0,7,00,00,10,00,00,00,19,00,
909000,000001A6,false,Rx,0,8,02,00,00,59,4A,80,00,10,
909000,00000294,false,Rx,0,8,00,15,00,03,FA,C4,20,14,
909000,00000097,false,Rx,0,8,80,20,00,01,FD,00,00,2F,
911000,00000039,false,Rx,0,2,00,0C,00,00,00,00,00,00,
0,00000158,false,Rx,0,8,12,27,05,2D,12,27,BE,05,
0,00000188,false,Rx,0,6,04,04,80,08,00,78,00,00,
914000,00000136,false,Rx,0,8,00,00,00,1A,0E,00,00,14,
914000,0000013A,false,Rx,0,8,00,00,00,00,00,00,00,19,
916000,0000013F,false,Rx,0,8,02,57,02,56,FF,EC,00,11,
916000,0000015A,false,Rx,0,8,00,00,00,CA,00,00,00,11,
0,0000017C,false,Rx,0,8,00,00,05,A8,48,00,00,10,
0,0000018E,false,Rx,0,3,00,07,0A,00,00,00,00,00,
919000,00000156,false,Rx,0,6,00,01,00,00,07,22,00,00,
0,00000097,false,Rx,0,8,80,20,10,01,FE,00,00,3C,
0,0000030C,false,Rx,0,8,13,67,4E,3C,01,60,90,25,
0,00000039,false,Rx,0,2,00,1B,00,00,00,00,00,00,
0,00000305,false,Rx,0,2,0E,3F,00,00,00,00,00,00,
0,00000158,false,Rx,0,8,12,26,05,2B,12,26,BE,18,
0,00000188,false,Rx,0,6,04,04,80,08,00,4B,00,00,
925000,00000136,false,Rx,0,8,00,00,00,1A,0E,00,00,23,
925000,0000013A,false,Rx,0,8,00,00,00,00,00,00,00,28,
926000,0000013F,false,Rx,0,8,02,57,02,56,00,00,00,28,
926000,0000015A,false,Rx,0,8,00,00,00,CA,00,00,00,20,
926000,0000017C,false,Rx,0,8,00,00,05,A8,48,00,00,2F,
926000,0000018E,false,Rx,0,3,00,03,1D,00,00,00,00,00,
926000,000001A4,false,Rx,0,8,00,68,00,00,00,00,00,1A,
0,000001AA,false,Rx,0,8,7F,FF,00,00,00,00,68,10,
0,000001B0,false,Rx,0,7,80,10,7F,FF,00,00,1E,00,
0,000001D0,false,Rx,0,8,24,EC,4A,08,94,89,27,C1,
0,000001DC,false,Rx,0,4,02,05,A8,32,00,00,00,00,
927000,000001E7,false,Rx,0,4,1A,00,68,18,00,00,00,00,
929000,00000156,false,Rx,0,6,00,01,00,01,07,30,00,00,
929000,000001C0,false,Rx,0,7,00,00,10,00,00,00,28,00,
929000,000001A6,false,Rx,0,8,02,00,00,59,4E,80,00,2B,
929000,00000097,false,Rx,0,8,80,20,10,01,FE,00,00,0F,
0,00000039,false,Rx,0,2,00,2A,00,00,00,00,00,00,
0,00000158,false,Rx,0,8,12,29,05,2A,12,29,BE,22,
933000,00000188,false,Rx,0,6,04,04,80,08,00,5A,00,00,
935000,00000136,false,Rx,0,8,00,00,00,1A,0E,00,00,32,
935000,0000013A,false,Rx,0,8,00,00,00,00,00,00,00,37,
935000,0000013F,false,Rx,0,8,02,57,02,55,00,1E,00,39,
935000,0000015A,false,Rx,0,8,00,00,00,CA,00,00,00,3F,
935000,0000017C,false,Rx,0,8,00,00,05,AB,48,00,00,3B,
935000,0000018E,false,Rx,0,3,00,09,26,00,00,00,00,00,
939000,00000156,false,Rx,0,6,00,01,00,01,07,03,00,00,
940000,00000097,false,Rx,0,8,80,20,10,01,FF,00,00,1D,
0,00000158,false,Rx,0,8,12,28,05,2C,12,28,BE,31,
0,00000188,false,Rx,0,6,04,04,80,08,00,69,00,00,
944000,00000039,false,Rx,0,2,00,39,00,00,00,00,00,00,
945000,00000136,false,Rx,0,8,00,00,00,1A,0E,00,00,05,
945000,0000013A,false,Rx,0,8,00,00,00,00,00,00,00,0A,
945000,0000013F,false,Rx,0,8,02,57,02,55,00,00,00,0B,
0,0000015A,false,Rx,0,8,00,00,00,CA,00,00,00,02,
0,0000017C,false,Rx,0,8,00,00,05,AB,48,00,00,0E,
946000,0000018E,false,Rx,0,3,00,05,39,00,00,00,00,00,
946000,000001A4,false,Rx,0,8,00,68,00,00,00,00,00,29,
946000,000001AA,false,Rx,0,8,7F,FF,00,00,00,00,68,2F,
946000,000001B0,false,Rx,0,7,80,10,7F,FF,00,00,2D,00,
0,000001D0,false,Rx,0,8,25,00,49,E8,94,31,27,33,
0,000001DC,false,Rx,0,4,02,05,AB,02,00,00,00,00,
0,000001E7,false,Rx,0,4,1A,00,68,27,00,00,00,00,
0,00000320,false,Rx,0,3,00,00,03,00,00,00,00,00,
0,00000324,false,Rx,0,8,7E,47,2D,1A,3C,07,00,0F,
949000,0000037C,false,Rx,0,8,DE,00,E0,34,00,01,00,01,
949000,000003D7,false,Rx,0,8,B0,C1,04,00,00,00,00,05,
949000,00000400,false,Rx,0,5,00,00,00,00,04,00,00,00,
949000,00000156,false,Rx,0,6,00,01,00,00,07,13,00,00,
949000,00000406,false,Rx,0,5,00,00,00,01,2B,00,00,00,
949000,000001C0,false,Rx,0,7,00,00,10,00,00,00,37,00,
950000,000001A6,false,Rx,0,8,02,00,00,59,4D,80,00,3B,
0,00000097,false,Rx,0,8,80,20,10,02,00,00,00,29,
0,00000294,false,Rx,0,8,00,15,00,03,FA,C4,20,23,
950000,0000040C,false,Rx,0,8,7F,00,00,00,00,00,00,02,
950000,00000454,false,Rx,0,6,37,F5,02,29,90,07,00,00,
950000,00000465,false,Rx,0,7,FF,FF,FF,FF,FF,FF,05,00,
951000,000006C1,false,Rx,0,1,32,00,00,00,00,00,00,00,
0,00000158,false,Rx,0,8,12,2A,05,2D,12,2A,BE,0F,
0,00000188,false,Rx,0,6,04,04,80,08,00,78,00,00,
0,00000136,false,Rx,0,8,00,00,00,1A,0D,00,00,15,
0,00000039,false,Rx,0,2,00,0C,00,00,00,00,00,00,
955000,0000013A,false,Rx,0,8,00,00,00,00,00,00,00,19,
955000,0000013F,false,Rx,0,8,02,56,02,51,00,1E,00,10,
955000,0000015A,false,Rx,0,8,00,00,00,87,00,00,00,18,
0,0000017C,false,Rx,0,8,00,00,05,AE,48,00,00,1A,
0,0000018E,false,Rx,0,3,00,09,08,00,00,00,00,00,
958000,00000156,false,Rx,0,6,00,01,00,00,07,22,00,00,
959000,00000097,false,Rx,0,8,80,20,10,02,00,00,00,38,
0,00000158,false,Rx,0,8,12,2A,05,2E,12,2A,BE,1D,
0,00000188,false,Rx,0,6,04,04,80,08,00,4B,00,00,
964000,00000136,false,Rx,0,8,00,00,00,1A,0D,00,00,24,
965000,0000013A,false,Rx,0,8,00,00,00,00,00,00,00,28,
965000,0000013F,false,Rx,0,8,02,56,02,51,00,00,00,2E,
965000,0000015A,false,Rx,0,8,00,00,00,87,00,00,00,27,
965000,0000017C,false,Rx,0,8,00,00,05,AE,48,00,00,29,
965000,00000039,false,Rx,0,2,00,1B,00,00,00,00,00,00,
965000,0000018E,false,Rx,0,3,00,06,1A,00,00,00,00,00,
967000,000001A4,false,Rx,0,8,00,68,00,00,00,00,00,38,
967000,000001AA,false,Rx,0,8,7F,FF,00,00,00,00,68,3E,
967000,000001B0,false,Rx,0,7,80,10,7F,FF,00,00,3C,00,
967000,000001D0,false,Rx,0,8,24,FC,4A,08,93,E9,28,33,
967000,000001DC,false,Rx,0,4,02,05,AE,1E,00,00,00,00,
968000,000001E7,false,Rx,0,4,1A,00,68,36,00,00,00,00,
969000,00000156,false,Rx,0,6,00,01,00,00,07,31,00,00,
969000,000001C0,false,Rx,0,7,00,00,10,00,00,00,0A,00,
969000,000001A6,false,Rx,0,8,02,00,00,59,60,80,00,09,
970000,00000309,false,Rx,0,8,13,12,00,00,00,30,00,4E,
970000,00000097,false,Rx,0,8,80,20,10,01,FF,00,00,0E,
970000,00000374,false,Rx,0,7,00,00,00,00,00,00,0A,00,
970000,00000377,false,Rx,0,8,1C,06,B5,74,CC,00,D2,02,
971000,00000378,false,Rx,0,8,07,50,EA,16,40,20,00,05,
0,00000158,false,Rx,0,8,12,2A,05,2C,12,2A,BE,2E,
0,00000188,false,Rx,0,6,04,04,80,08,00,5A,00,00,
973000,00000421,false,Rx,0,5,00,00,00,01,3D,00,00,00,
975000,00000136,false,Rx,0,8,00,00,00,1A,0D,00,00,33,
976000,0000013A,false,Rx,0,8,00,00,00,00,00,00,00,37,
976000,0000013F,false,Rx,0,8,02,56,02,51,00,00,00,3D,
976000,0000015A,false,Rx,0,8,00,00,00,87,00,00,00,36,
976000,0000017C,false,Rx,0,8,00,00,05,AE,48,00,00,38,
976000,0000018E,false,Rx,0,3,00,0C,23,00,00,00,00,00,
977000,00000039,false,Rx,0,2,00,2A,00,00,00,00,00,00,
979000,00000156,false,Rx,0,6,00,02,00,01,07,02,00,00,
979000,00000097,false,Rx,0,8,80,20,10,02,00,00,00,1A,
0,00000158,false,Rx,0,8,12,31,05,2B,12,31,BE,3E,
0,00000188,false,Rx,0,6,04,04,80,08,00,69,00,00,
0,00000136,false,Rx,0,8,00,00,00,1A,0D,00,00,06,
0,0000013A,false,Rx,0,8,00,00,00,00,00,00,00,0A,
985000,0000013F,false,Rx,0,8,02,56,02,51,00,00,00,00,
985000,0000015A,false,Rx,0,8,00,00,00,87,00,00,00,09,
985000,0000017C,false,Rx,0,8,00,00,05,AE,48,00,00,0B,
985000,0000018E,false,Rx,0,3,00,04,3A,00,00,00,00,00,
987000,000001A4,false,Rx,0,8,00,68,00,00,00,00,00,0B,
987000,000001AA,false,Rx,0,8,7F,FF,00,00,00,00,68,01,
987000,000001B0,false,Rx,0,7,80,10,7F,FF,00,00,0F,00,
987000,000001D0,false,Rx,0,8,24,FE,4A,20,94,61,28,DC,
987000,000001DC,false,Rx,0,4,02,05,AE,2D,00,00,00,00,
987000,000001E7,false,Rx,0,4,1A,00,68,09,00,00,00,00,
988000,00000039,false,Rx,0,2,00,39,00,00,00,00,00,00,
988000,00000156,false,Rx,0,6,00,01,00,01,07,12,00,00,
989000,000001C0,false,Rx,0,7,00,00,10,00,00,00,19,00,
989000,000001A6,false,Rx,0,8,02,00,00,59,52,80,00,17,
989000,00000294,false,Rx,0,8,00,15,00,03,FA,C4,20,32,
989000,00000097,false,Rx,0,8,80,20,10,01,FE,00,00,2D,
0,00000158,false,Rx,0,8,12,31,05,2D,12,31,BE,0F,
0,00000188,false,Rx,0,6,04,04,80,08,00,78,00,00,
0,00000136,false,Rx,0,8,00,00,00,1A,0D,00,00,15,
0,0000013A,false,Rx,0,8,00,00,00,00,00,00,00,19,
996000,0000013F,false,Rx,0,8,02,56,02,51,00,00,00,1F,
996000,0000015A,false,Rx,0,8,00,00,00,87,00,00,00,18,
0,0000017C,false,Rx,0,8,00,00,05,AE,48,00,00,1A,
0,0000018E,false,Rx,0,3,00,03,0E,00,00,00,00,00,
999000,00000156,false,Rx,0,6,00,01,00,00,07,22,00,00,
999000,00000039,false,Rx,0,2,00,0C,00,00,00,00,00,00,
999000,00000097,false,Rx,0,8,80,20,10,01,FF,00,00,3B,
0,00000158,false,Rx,0,8,12,31,05,2F,12,31,BE,1C,
0,00000188,false,Rx,0,6,04,04,80,08,00,4B,00,00,
0,00000136,false,Rx,0,8,00,00,00,1A,0D,00,00,24,
0,0000013A,false,Rx,0,8,00,00,00,00,00,00,00,28,
5000,0000013F,false,Rx,0,8,02,56,02,51,00,0A,00,24,
5000,0000015A,false,Rx,0,8,00,00,00,87,00,00,00,27,
0,0000017C,false,Rx,0,8,00,00,05,AF,48,00,00,28,
0,0000018E,false,Rx,0,3,00,06,1A,00,00,00,00,00,
5000,000001A4,false,Rx,0,8,00,68,00,00,00,00,00,1A,
0,000001AA,false,Rx,0,8,7F,FF,00,00,00,00,68,10,
0,000001B0,false,Rx,0,7,80,10,7F,FF,00,00,1E,00,
0,000001D0,false,Rx,0,8,25,18,49,F8,94,B1,29,A8,
0,000001DC,false,Rx,0,4,02,05,AF,3B,00,00,00,00,
7000,000001E7,false,Rx,0,4,1A,00,68,18,00,00,00,00,
7000,0000033D,false,Rx,0,4,01,40,00,1F,00,00,00,00,
8000,00000156,false,Rx,0,6,00,01,00,00,07,31,00,00,
9000,000001C0,false,Rx,0,7,00,00,10,00,00,00,28,00,
9000,000001A6,false,Rx,0,8,02,00,00,59,5B,80,00,2D,
9000,00000097,false,Rx,0,8,80,20,10,02,00,00,00,0B,
9000,00000039,false,Rx,0,2,00,1B,00,00,00,00,00,00,
0,00000158,false,Rx,0,8,12,2E,05,2E,12,2E,BE,24,
0,00000188,false,Rx,0,6,04,04,80,08,00,5A,00,00,
15000,00000136,false,Rx,0,8,00,00,00,19,0D,00,00,34,
16000,0000013A,false,Rx,0,8,00,00,00,00,00,00,00,37,
16000,0000013F,false,Rx,0,8,02,52,02,51,00,00,00,31,
16000,0000015A,false,Rx,0,8,00,00,00,87,00,00,00,36,
16000,0000017C,false,Rx,0,8,00,00,05,AF,48,00,00,37,
16000,0000018E,false,Rx,0,3,00,06,29,00,00,00,00,00,
19000,00000156,false,Rx,0,6,00,01,00,00,07,04,00,00,
0,00000097,false,Rx,0,8,80,20,10,02,01,00,00,19,
0,0000030C,false,Rx,0,8,13,6B,4E,3C,01,60,90,30,
21000,00000039,false,Rx,0,2,00,2A,00,00,00,00,00,00,
0,00000158,false,Rx,0,8,12,30,05,2E,12,30,BE,3D,
0,00000188,false,Rx,0,6,04,04,80,08,00,69,00,00,
25000,00000136,false,Rx,0,8,00,00,00,19,0D,00,00,07,
25000,0000013A,false,Rx,0,8,00,00,00,00,00,00,00,0A,
25000,0000013F,false,Rx,0,8,02,52,02,50,00,1E,00,06,
0,0000015A,false,Rx,0,8,00,00,00,87,00,00,00,09,
0,0000017C,false,Rx,0,8,00,00,05,B2,48,00,00,06,
25000,0000018E,false,Rx,0,3,00,04,3A,00,00,00,00,00,
25000,000001A4,false,Rx,0,8,00,68,00,00,00,00,00,29,
0,000001AA,false,Rx,0,8,7F,FF,00,00,00,00,68,2F,
0,000001B0,false,Rx,0,7,80,10,7F,FF,00,00,2D,00,
27000,000001D0,false,Rx,0,8,25,10,4A,30,94,B1,29,D0,
27000,000001DC,false,Rx,0,4,02,05,B2,0A,00,00,00,00,
27000,000001E7,false,Rx,0,4,1A,00,68,27,00,00,00,00,
27000,00000305,false,Rx,0,2,0E,02,00,00,00,00,00,00,
28000,00000156,false,Rx,0,6,00,01,00,02,07,11,00,00,
28000,000001C0,false,Rx,0,7,00,00,10,00,00,00,37,00,
30000,000001A6,false,Rx,0,8,02,00,00,51,57,80,00,38,
30000,00000294,false,Rx,0,8,00,15,00,03,FA,C4,20,05,
30000,00000097,false,Rx,0,8,80,20,00,02,00,00,00,2A,
32000,00000039,false,Rx,0,2,00,39,00,00,00,00,00,00,
0,00000158,false,Rx,0,8,12,36,05,2D,12,36,BE,05,
0,00000188,false,Rx,0,6,04,04,80,08,00,78,00,00,
35000,00000136,false,Rx,0,8,00,00,00,19,0D,00,00,16,
36000,0000013A,false,Rx,0,8,00,00,00,00,00,00,00,19,
36000,0000013F,false,Rx,0,8,02,52,02,50,00,00,00,14,
36000,0000015A,false,Rx,0,8,00,00,00,CA,00,00,00,11,
36000,0000017C,false,Rx,0,8,00,00,05,B2,48,00,00,15,
36000,0000018E,false,Rx,0,3,00,07,0A,00,00,00,00,00,
39000,00000156,false,Rx,0,6,00,00,00,04,07,2F,00,00,
40000,00000097,false,Rx,0,8,80,20,10,02,00,00,00,38,
43000,00000039,false,Rx,0,2,00,0C,00,00,00,00,00,00,
43000,00000158,false,Rx,0,8,12,36,05,2F,12,36,BE,12,
43000,00000188,false,Rx,0,6,04,04,80,08,00,4B,00,00,
45000,00000136,false,Rx,0,8,00,00,00,19,0D,00,00,25,
45000,0000013A,false,Rx,0,8,00,00,00,00,00,00,00,28,
45000,0000013F,false,Rx,0,8,02,4E,02,51,FF,E2,00,29,
45000,0000015A,false,Rx,0,8,00,00,00,CA,00,00,00,20,
0,0000017C,false,Rx,0,8,00,00,05,AF,48,00,00,28,
0,0000018E,false,Rx,0,3,00,0A,16,00,00,00,00,00,
46000,000001A4,false,Rx,0,8,00,68,00,00,00,00,00,38,
46000,000001AA,false,Rx,0,8,7F,FF,00,00,00,00,68,3E,
46000,000001B0,false,Rx,0,7,80,10,7F,FF,00,00,3C,00,
0,000001D0,false,Rx,0,8,25,10,4A,28,94,89,29,6B,
0,000001DC,false,Rx,0,4,02,05,AF,1D,00,00,00,00,
47000,000001E7,false,Rx,0,4,1A,00,68,36,00,00,00,00,
47000,00000320,false,Rx,0,3,00,00,12,00,00,00,00,00,
47000,00000324,false,Rx,0,8,7E,47,2D,1C,3C,0D,00,16,
47000,0000037C,false,Rx,0,8,DA,00,DC,34,00,01,00,19,
49000,00000156,false,Rx,0,6,00,01,00,01,07,30,00,00,
49000,000001C0,false,Rx,0,7,00,00,10,00,00,00,0A,00,
49000,000001A6,false,Rx,0,8,02,00,00,51,5C,80,00,06,
50000,00000097,false,Rx,0,8,80,20,00,02,00,00,00,0C,
0,00000158,false,Rx,0,8,12,34,05,30,12,34,BE,23,
0,00000188,false,Rx,0,6,04,04,80,08,00,5A,00,00,
54000,00000039,false,Rx,0,2,00,1B,00,00,00,00,00,00,
55000,00000136,false,Rx,0,8,00,00,00,19,0D,00,00,34,
56000,0000013A,false,Rx,0,8,00,00,00,00,00,00,00,37,
0,0000013F,false,Rx,0,8,02,4E,02,4D,00,00,00,3B,
0,0000015A,false,Rx,0,8,00,00,00,CA,00,00,00,3F,
56000,0000017C,false,Rx,0,8,00,00,05,AF,48,00,00,37,
56000,0000018E,false,Rx,0,3,00,07,28,00,00,00,00,00,
59000,00000156,false,Rx,0,6,00,01,00,01,07,03,00,00,
60000,00000097,false,Rx,0,8,80,20,00,01,FF,00,00,1E,
0,00000158,false,Rx,0,8,12,3D,05,32,12,3D,BE,3E,
0,00000188,false,Rx,0,6,04,04,80,08,00,69,00,00,
0,00000136,false,Rx,0,8,00,00,00,19,0D,00,00,07,
0,00000039,false,Rx,0,2,00,2A,00,00,00,00,00,00,
65000,0000013A,false,Rx,0,8,00,00,00,00,00,00,00,0A,
65000,0000013F,false,Rx,0,8,02,4E,02,4D,FF,F6,00,0B,
66000,0000015A,false,Rx,0,8,00,00,00,CA,00,00,00,02,
0,0000017C,false,Rx,0,8,00,00,05,AE,48,00,00,0B,
0,0000018E,false,Rx,0,3,00,06,38,00,00,00,00,00,
66000,000001A4,false,Rx,0,8,00,68,00,00,00,00,00,0B,
67000,000001AA,false,Rx,0,8,7F,FF,00,00,00,00,68,01,
67000,000001B0,false,Rx,0,7,80,10,7F,FF,00,00,0F,00,
67000,000001D0,false,Rx,0,8,25,20,4A,30,95,09,29,A4,
67000,000001DC,false,Rx,0,4,02,05,AE,2D,00,00,00,00,
68000,000001E7,false,Rx,0,4,1A,00,68,09,00,00,00,00,
69000,00000156,false,Rx,0,6,00,01,00,01,07,12,00,00,
69000,000001C0,false,Rx,0,7,00,00,10,00,00,00,19,00,
69000,000001A6,false,Rx,0,8,02,00,00,51,67,80,00,19,
69000,00000294,false,Rx,0,8,00,15,00,03,FA,C4,20,14,
70000,00000097,false,Rx,0,8,80,20,00,01,FF,00,00,2D,
70000,00000309,false,Rx,0,8,13,1D,00,00,00,30,00,52,
70000,00000374,false,Rx,0,7,00,00,00,00,00,00,19,00,
70000,00000377,false,Rx,0,8,20,06,B5,74,CC,00,D2,1C,
70000,00000378,false,Rx,0,8,07,50,EA,16,40,20,00,14,
71000,00000405,false,Rx,0,8,00,00,00,00,00,00,00,1E,
71000,00000428,false,Rx,0,7,00,00,00,00,00,00,19,00,
0,00000158,false,Rx,0,8,12,3D,05,30,12,3D,BE,03,
0,00000188,false,Rx,0,6,04,04,80,08,00,78,00,00,
75000,00000136,false,Rx,0,8,00,00,00,19,0D,00,00,16,
76000,0000013A,false,Rx,0,8,00,00,00,00,00,00,00,19,
76000,0000013F,false,Rx,0,8,02,4E,02,4D,00,00,00,1D,
76000,0000015A,false,Rx,0,8,00,00,00,CA,00,00,00,11,
76000,0000017C,false,Rx,0,8,00,00,05,AE,48,00,00,1A,
76000,00000039,false,Rx,0,2,00,39,00,00,00,00,00,00,
76000,0000018E,false,Rx,0,3,00,0A,07,00,00,00,00,00,
79000,00000156,false,Rx,0,6,00,01,00,01,07,21,00,00,
79000,00000097,false,Rx,0,8,80,20,00,02,00,00,00,39,
83000,00000158,false,Rx,0,8,12,37,05,30,12,37,BE,1E,
83000,00000188,false,Rx,0,6,04,04,80,08,00,4B,00,00,
0,00000136,false,Rx,0,8,00,00,00,19,0D,00,00,25,
0,0000013A,false,Rx,0,8,00,00,00,00,00,00,00,28,
86000,0000013F,false,Rx,0,8,02,4F,02,4E,FF,C4,00,2C,
86000,0000015A,false,Rx,0,8,00,00,00,CA,00,00,00,20,
86000,0000017C,false,Rx,0,8,00,00,05,A8,48,00,00,2F,
86000,0000018E,false,Rx,0,3,00,02,1E,00,00,00,00,00,
86000,000001A4,false,Rx,0,8,00,68,00,00,00,00,00,1A,
87000,000001AA,false,Rx,0,8,7F,FF,00,00,00,00,68,10,
87000,000001B0,false,Rx,0,7,80,10,7F,FF,00,00,1E,00,
87000,00000039,false,Rx,0,2,00,0C,00,00,00,00,00,00,
87000,000001D0,false,Rx,0,8,25,28,4A,5C,95,41,29,66,
87000,000001DC,false,Rx,0,4,02,05,A8,32,00,00,00,00,
87000,000001E7,false,Rx,0,4,1A,00,68,18,00,00,00,00,
88000,00000156,false,Rx,0,6,00,01,00,01,07,30,00,00,
88000,000001C0,false,Rx,0,7,00,00,10,00,00,00,28,00,
89000,000001A6,false,Rx,0,8,02,00,00,51,67,80,00,28,
89000,00000097,false,Rx,0,8,80,20,00,01,FF,00,00,0F,
93000,00000158,false,Rx,0,8,12,38,05,31,12,38,BE,2A,
93000,00000188,false,Rx,0,6,04,04,80,08,00,5A,00,00,
95000,00000136,false,Rx,0,8,00,00,00,19,0D,00,00,34,
95000,0000013A,false,Rx,0,8,00,00,00,00,00,00,00,37,
95000,0000013F,false,Rx,0,8,02,4F,02,4E,00,00,00,39,
95000,0000015A,false,Rx,0,8,00,00,00,CA,00,00,00,3F,
95000,0000017C,false,Rx,0,8,00,00,05,A8,48,00,00,3E,
96000,0000018E,false,Rx,0,3,00,07,28,00,00,00,00,00,
97000,00000039,false,Rx,0,2,00,1B,00,00,00,00,00,00,
99000,00000156,false,Rx,0,6,00,01,00,01,07,03,00,00,
99000,00000097,false,Rx,0,8,80,20,00,02,01,00,00,1A,
0,00000158,false,Rx,0,8,12,3E,05,32,12,3E,BE,3C,
0,00000188,false,Rx,0,6,04,04,80,08,00,69,00,00,
106000,00000136,false,Rx,0,8,00,00,00,19,0D,00,00,07,
106000,0000013A,false,Rx,0,8,00,00,00,00,00,00,00,0A,
106000,0000013F,false,Rx,0,8,02,4F,02,4E,00,1E,00,0D,
0,0000015A,false,Rx,0,8,00,00,00,CA,00,00,00,02,
0,0000017C,false,Rx,0,8,00,00,05,AB,48,00,00,0E,
107000,0000018E,false,Rx,0,3,00,01,3D,00,00,00,00,00,
107000,000001A4,false,Rx,0,8,00,69,00,00,00,00,00,28,
0,000001AA,false,Rx,0,8,7F,FF,00,00,00,00,69,2E,
0,000001B0,false,Rx,0,7,80,10,7F,FF,00,00,2D,00,
0,000001D0,false,Rx,0,8,25,2E,4A,70,95,11,29,6D,
0,000001DC,false,Rx,0,4,02,05,AB,02,00,00,00,00,
107000,000001E7,false,Rx,0,4,1A,00,68,27,00,00,00,00,
107000,0000033D,false,Rx,0,4,01,40,00,2E,00,00,00,00,
109000,00000156,false,Rx,0,6,00,01,00,01,07,12,00,00,
109000,000001C0,false,Rx,0,7,00,00,10,00,00,00,37,00,
109000,00000039,false,Rx,0,2,00,2A,00,00,00,00,00,00,
109000,000001A6,false,Rx,0,8,02,00,00,51,65,80,00,39,
0,00000097,false,Rx,0,8,80,20,00,02,02,00,00,28,
0,00000294,false,Rx,0,8,00,15,00,03,FA,C4,20,23,
0,00000158,false,Rx,0,8,12,42,05,33,12,42,BE,04,
0,00000188,false,Rx,0,6,04,04,80,08,00,78,00,00,
115000,00000136,false,Rx,0,8,00,00,00,19,0D,00,00,16,
0,0000013A,false,Rx,0,8,00,00,00,00,00,00,00,19,
0,0000013F,false,Rx,0,8,02,4F,02,4E,00,00,00,1B,
115000,0000015A,false,Rx,0,8,00,00,00,87,00,00,00,18,
115000,0000017C,false,Rx,0,8,00,00,05,AB,48,00,00,1D,
115000,0000018E,false,Rx,0,3,00,06,0B,00,00,00,00,00,
119000,00000156,false,Rx,0,6,00,01,00,00,07,22,00,00,
0,00000097,false,Rx,0,8,80,20,00,02,01,00,00,38,
0,0000030C,false,Rx,0,8,13,70,4C,3C,01,60,90,0F,
119000,00000039,false,Rx,0,2,00,39,00,00,00,00,00,00,
0,00000158,false,Rx,0,8,12,4A,05,34,12,4A,BE,12,
0,00000188,false,Rx,0,6,04,04,80,08,00,4B,00,00,
125000,00000136,false,Rx,0,8,00,00,00,19,0D,00,00,25,
125000,0000013A,false,Rx,0,8,00,00,00,00,00,00,00,28,
126000,0000013F,false,Rx,0,8,02,4E,02,4D,00,0A,00,22,
126000,0000015A,false,Rx,0,8,00,00,00,87,00,00,00,27,
0,0000017C,false,Rx,0,8,00,00,05,AC,48,00,00,2B,
0,0000018E,false,Rx,0,3,00,06,1A,00,00,00,00,00,
126000,000001A4,false,Rx,0,8,00,69,00,00,00,00,00,37,
127000,000001AA,false,Rx,0,8,7F,FF,00,00,00,00,69,3D,
127000,000001B0,false,Rx,0,7,80,10,7F,FF,00,00,3C,00,
127000,000001D0,false,Rx,0,8,25,3E,4A,94,95,09,2A,13,
127000,000001DC,false,Rx,0,4,02,05,AC,10,00,00,00,00,
127000,000001E7,false,Rx,0,4,1A,00,68,36,00,00,00,00,
128000,00000156,false,Rx,0,6,00,01,00,00,07,31,00,00,
128000,000001C0,false,Rx,0,7,00,00,10,00,00,00,0A,00,
130000,000001A6,false,Rx,0,8,02,00,00,47,64,80,00,08,
130000,00000097,false,Rx,0,8,7F,E0,00,02,00,00,00,02,
0,00000039,false,Rx,0,2,00,0C,00,00,00,00,00,00,
0,00000305,false,Rx,0,2,0E,11,00,00,00,00,00,00,
0,00000158,false,Rx,0,8,12,4A,05,35,12,4A,BE,20,
0,00000188,false,Rx,0,6,04,04,80,08,00,5A,00,00,
134000,00000136,false,Rx,0,8,00,00,00,19,0D,00,00,34,
136000,0000013A,false,Rx,0,8,00,00,00,00,00,00,00,37,
136000,0000013F,false,Rx,0,8,02,4E,02,4D,00,00,00,3B,
136000,0000015A,false,Rx,0,8,00,00,00,87,00,00,00,36,
136000,0000017C,false,Rx,0,8,00,00,05,AC,48,00,00,3A,
136000,0000018E,false,Rx,0,3,00,06,29,00,00,00,00,00,
139000,00000156,false,Rx,0,6,00,01,00,00,07,04,00,00,
140000,00000097,false,Rx,0,8,80,20,00,01,FD,00,00,10,
142000,00000039,false,Rx,0,2,00,1B,00,00,00,00,00,00,
0,00000158,false,Rx,0,8,12,4E,05,36,12,4E,BE,36,
0,00000188,false,Rx,0,6,04,04,80,08,00,69,00,00,
145000,00000136,false,Rx,0,8,00,00,00,19,0D,00,00,07,
145000,0000013A,false,Rx,0,8,00,00,00,00,00,00,00,0A,
145000,0000013F,false,Rx,0,8,02,4E,02,4D,00,00,00,0E,
145000,0000015A,false,Rx,0,8,00,00,00,87,00,00,00,09,
145000,0000017C,false,Rx,0,8,00,00,05,AC,48,00,00,0D,
146000,0000018E,false,Rx,0,3,00,02,3C,00,00,00,00,00,
146000,000001A4,false,Rx,0,8,00,68,00,00,00,00,00,0B,
146000,000001AA,false,Rx,0,8,7F,FF,00,00,00,00,68,01,
146000,000001B0,false,Rx,0,7,80,10,7F,FF,00,00,0F,00,
147000,000001D0,false,Rx,0,8,25,4E,4A,84,95,89,2B,65,
147000,000001DC,false,Rx,0,4,02,05,AC,2F,00,00,00,00,
147000,000001E7,false,Rx,0,4,1A,00,68,09,00,00,00,00,
147000,00000320,false,Rx,0,3,00,00,21,00,00,00,00,00,
148000,00000324,false,Rx,0,8,7E,47,2D,1D,3C,11,00,2F,
148000,0000037C,false,Rx,0,8,D7,00,D9,34,00,01,00,2E,
148000,000003D7,false,Rx,0,8,B0,00,00,00,00,00,00,51,
148000,00000156,false,Rx,0,6,00,01,00,01,07,12,00,00,
149000,000001C0,false,Rx,0,7,00,00,10,00,00,00,19,00,
0,000001A6,false,Rx,0,8,02,00,00,47,66,80,00,15,
0,00000294,false,Rx,0,8,00,15,00,03,FA,C4,20,32,
149000,00000097,false,Rx,0,8,80,20,00,02,00,00,00,2A,
153000,00000039,false,Rx,0,2,00,2A,00,00,00,00,00,00,
153000,00000158,false,Rx,0,8,12,4D,05,36,12,4D,BE,0B,
153000,00000188,false,Rx,0,6,04,04,80,08,00,78,00,00,
155000,00000136,false,Rx,0,8,00,00,00,19,0D,00,00,16,
155000,0000013A,false,Rx,0,8,00,00,00,00,00,00,00,19,
155000,0000013F,false,Rx,0,8,02,4E,02,47,00,00,00,13,
155000,0000015A,false,Rx,0,8,00,00,00,CA,00,00,00,11,
155000,0000017C,false,Rx,0,8,00,00,05,AC,48,00,00,1C,
156000,0000018E,false,Rx,0,3,00,05,0C,00,00,00,00,00,
158000,00000156,false,Rx,0,6,00,00,00,00,07,23,00,00,
159000,00000097,false,Rx,0,8,7F,E0,00,02,01,00,00,3E,
164000,00000158,false,Rx,0,8,12,4E,05,37,12,4E,BE,17,
164000,00000188,false,Rx,0,6,04,04,80,08,00,4B,00,00,
164000,00000039,false,Rx,0,2,00,39,00,00,00,00,00,00,
165000,00000136,false,Rx,0,8,00,00,00,19,0D,00,00,25,
165000,0000013A,false,Rx,0,8,00,00,00,00,00,00,00,28,
165000,0000013F,false,Rx,0,8,02,4F,02,47,FF,F6,00,2E,
166000,0000015A,false,Rx,0,8,00,00,00,CA,00,00,00,20,
0,0000017C,false,Rx,0,8,00,00,05,AB,48,00,00,2C,
0,0000018E,false,Rx,0,3,00,04,1C,00,00,00,00,00,
166000,000001A4,false,Rx,0,8,00,68,00,00,00,00,00,1A,
166000,000001AA,false,Rx,0,8,7F,FF,00,00,00,00,68,10,
167000,000001B0,false,Rx,0,7,80,10,7F,FF,00,00,1E,00,
167000,000001D0,false,Rx,0,8,25,5A,4A,84,95,59,2C,3D,
167000,000001DC,false,Rx,0,4,02,05,AB,3F,00,00,00,00,
167000,000001E7,false,Rx,0,4,1A,00,68,18,00,00,00,00,
168000,00000156,false,Rx,0,6,00,01,00,01,07,30,00,00,
168000,000001C0,false,Rx,0,7,00,00,10,00,00,00,28,00,
170000,000001A6,false,Rx,0,8,02,00,00,47,67,80,00,23,
170000,00000309,false,Rx,0,8,13,37,00,00,00,31,00,64,
170000,00000097,false,Rx,0,8,7F,E0,00,02,00,00,00,02,
170000,00000374,false,Rx,0,7,00,00,00,00,00,00,28,00,
170000,00000377,false,Rx,0,8,20,06,B5,74,CC,00,D2,2B,
170000,00000378,false,Rx,0,8,07,50,EA,16,40,20,00,23,
0,00000158,false,Rx,0,8,12,58,05,37,12,58,BE,20,
0,00000188,false,Rx,0,6,04,04,80,08,00,5A,00,00,
0,00000136,false,Rx,0,8,00,00,00,19,0D,00,00,34,
0,00000039,false,Rx,0,2,00,0C,00,00,00,00,00,00,
175000,0000013A,false,Rx,0,8,00,00,00,00,00,00,00,37,
175000,0000013F,false,Rx,0,8,02,4F,02,47,00,00,00,30,
175000,0000015A,false,Rx,0,8,00,00,00,CA,00,00,00,3F,
176000,0000017C,false,Rx,0,8,00,00,05,AB,48,00,00,3B,
176000,0000018E,false,Rx,0,3,00,02,2D,00,00,00,00,00,
179000,00000156,false,Rx,0,6,00,01,00,00,07,04,00,00,
180000,00000097,false,Rx,0,8,7F,E0,00,01,FF,00,00,14,
0,00000158,false,Rx,0,8,12,5A,05,39,12,5A,BE,39,
0,00000188,false,Rx,0,6,04,04,80,08,00,69,00,00,
185000,00000136,false,Rx,0,8,00,00,00,19,0D,00,00,07,
185000,0000013A,false,Rx,0,8,00,00,00,00,00,00,00,0A,
185000,0000013F,false,Rx,0,8,02,49,02,47,00,32,00,04,
185000,0000015A,false,Rx,0,8,00,00,00,CA,00,00,00,02,
185000,0000017C,false,Rx,0,8,00,00,05,B0,48,00,00,08,
186000,00000039,false,Rx,0,2,00,1B,00,00,00,00,00,00,
186000,0000018E,false,Rx,0,3,00,05,39,00,00,00,00,00,
186000,000001A4,false,Rx,0,8,00,68,00,00,00,00,00,29,
186000,000001AA,false,Rx,0,8,7F,FF,00,00,00,00,68,2F,
186000,000001B0,false,Rx,0,7,80,10,7F,FF,00,00,2D,00,
187000,000001D0,false,Rx,0,8,25,66,4A,A4,95,59,2B,A8,
187000,000001DC,false,Rx,0,4,02,05,B0,0C,00,00,00,00,
187000,000001E7,false,Rx,0,4,1A,00,68,27,00,00,00,00,
188000,00000156,false,Rx,0,6,00,01,00,00,07,13,00,00,
188000,000001C0,false,Rx,0,7,00,00,10,00,00,00,37,00,
188000,000001A6,false,Rx,0,8,02,00,00,47,67,80,00,32,
188000,00000294,false,Rx,0,8,00,15,00,03,FA,C4,20,05,
190000,00000097,false,Rx,0,8,7F,E0,00,01,FF,00,00,23,
0,00000158,false,Rx,0,8,12,5C,05,3A,12,5C,BE,07,
0,00000188,false,Rx,0,6,04,04,80,08,00,78,00,00,
194000,00000136,false,Rx,0,8,00,00,00,19,0D,00,00,16,
194000,0000013A,false,Rx,0,8,00,00,00,00,00,00,00,19,
196000,0000013F,false,Rx,0,8,02,49,02,45,00,00,00,1A,
196000,0000015A,false,Rx,0,8,00,00,00,CA,00,00,00,11,
196000,0000017C,false,Rx,0,8,00,00,05,B0,48,00,00,17,
196000,0000018E,false,Rx,0,3,00,06,0B,00,00,00,00,00,
197000,00000039,false,Rx,0,2,00,2A,00,00,00,00,00,00,
199000,00000156,false,Rx,0,6,00,01,00,00,07,22,00,00,
200000,00000097,false,Rx,0,8,7F,E0,00,02,01,00,00,3E,
0,00000158,false,Rx,0,8,12,5D,05,3A,12,5D,BE,14,
0,00000188,false,Rx,0,6,04,04,80,08,00,4B,00,00,
0,00000136,false,Rx,0,8,00,00,00,19,0D,00,00,25,
0,0000013A,false,Rx,0,8,00,00,00,00,00,00,00,28,
206000,0000013F,false,Rx,0,8,02,3F,02,46,FF,F6,00,20,
206000,0000015A,false,Rx,0,8,00,00,00,CA,00,00,00,20,
206000,0000017C,false,Rx,0,8,00,00,05,AF,48,00,00,28,
206000,0000018E,false,Rx,0,3,00,03,1D,00,00,00,00,00,
206000,000001A4,false,Rx,0,8,00,68,00,00,00,00,00,38,
0,000001AA,false,Rx,0,8,7F,FF,00,00,00,00,68,3E,
0,000001B0,false,Rx,0,7,80,10,7F,FF,00,00,3C,00,
206000,000001D0,false,Rx,0,8,25,4A,4A,D4,95,B1,2A,F1,
208000,000001DC,false,Rx,0,4,02,05,AF,1D,00,00,00,00,
208000,000001E7,false,Rx,0,4,1A,00,68,36,00,00,00,00,
208000,0000033D,false,Rx,0,4,01,40,00,3D,00,00,00,00,
208000,00000039,false,Rx,0,2,00,39,00,00,00,00,00,00,
209000,00000156,false,Rx,0,6,00,00,00,01,07,31,00,00,
209000,000001C0,false,Rx,0,7,00,00,10,00,00,00,0A,00,
209000,000001A6,false,Rx,0,8,02,00,00,47,56,80,00,07,
210000,00000097,false,Rx,0,8,7F,E0,00,02,01,00,00,01,
214000,00000158,false,Rx,0,8,12,5C,05,3B,12,5C,BE,24,
214000,00000188,false,Rx,0,6,04,04,80,08,00,5A,00,00,
215000,00000136,false,Rx,0,8,00,00,00,19,0D,00,00,34,
216000,0000013A,false,Rx,0,8,00,00,00,00,00,00,00,37,
216000,0000013F,false,Rx,0,8,02,3F,02,46,00,00,00,32,
216000,0000015A,false,Rx,0,8,00,00,00,CA,00,00,00,3F,
216000,0000017C,false,Rx,0,8,00,00,05,AF,48,00,00,37,
216000,0000018E,false,Rx,0,3,00,04,2B,00,00,00,00,00,
219000,00000156,false,Rx,0,6,00,00,00,00,07,05,00,00,
219000,00000039,false,Rx,0,2,00,0C,00,00,00,00,00,00,
0,00000097,false,Rx,0,8,7F,E0,00,02,00,00,00,11,
0,0000030C,false,Rx,0,8,13,75,4C,3C,01,60,90,19,
0,00000158,false,Rx,0,8,12,5D,05,3B,12,5D,BE,31,
0,00000188,false,Rx,0,6,04,04,80,08,00,69,00,00,
224000,00000136,false,Rx,0,8,00,00,00,19,0D,00,00,07,
224000,0000013A,false,Rx,0,8,00,00,00,00,00,00,00,0A,
226000,0000013F,false,Rx,0,8,02,3F,02,45,00,0A,00,0C,
226000,0000015A,false,Rx,0,8,00,00,00,CA,00,00,00,02,
0,0000017C,false,Rx,0,8,00,00,05,B0,48,00,00,08,
0,0000018E,false,Rx,0,3,00,08,36,00,00,00,00,00,
0,000001A4,false,Rx,0,8,00,68,00,00,00,00,00,0B,
227000,000001AA,false,Rx,0,8,7F,FF,00,00,00,00,68,01,
227000,000001B0,false,Rx,0,7,80,10,7F,FF,00,00,0F,00,
227000,000001D0,false,Rx,0,8,25,5A,4B,04,95,C1,2A,DD,
227000,000001DC,false,Rx,0,4,02,05,B0,2A,00,00,00,00,
227000,000001E7,false,Rx,0,4,1A,00,68,09,00,00,00,00,
228000,00000156,false,Rx,0,6,00,01,00,01,07,12,00,00,
228000,000001C0,false,Rx,0,7,00,00,10,00,00,00,19,00,
228000,000001A6,false,Rx,0,8,02,00,00,51,56,80,00,1B,
230000,00000294,false,Rx,0,8,00,15,00,03,FA,C4,20,14,
230000,00000097,false,Rx,0,8,7F,E0,00,01,FF,00,00,23,
230000,00000039,false,Rx,0,2,00,1B,00,00,00,00,00,00,
0,00000158,false,Rx,0,8,12,61,05,3C,12,61,BE,09,
0,00000188,false,Rx,0,6,04,04,80,08,00,78,00,00,
0,00000136,false,Rx,0,8,00,00,00,19,0D,00,00,16,
0,0000013A,false,Rx,0,8,00,00,00,00,00,00,00,19,
235000,0000013F,false,Rx,0,8,02,3F,02,45,00,00,00,15,
235000,0000015A,false,Rx,0,8,00,00,00,CA,00,00,00,11,
235000,0000017C,false,Rx,0,8,00,00,05,B0,48,00,00,17,
235000,0000018E,false,Rx,0,3,00,07,0A,00,00,00,00,00,
235000,00000305,false,Rx,0,2,0E,20,00,00,00,00,00,00,
238000,00000156,false,Rx,0,6,00,01,00,00,07,22,00,00,
239000,00000097,false,Rx,0,8,7F,E0,00,01,FF,00,00,32,
241000,00000039,false,Rx,0,2,00,2A,00,00,00,00,00,00,
0,00000158,false,Rx,0,8,12,61,05,3C,12,61,BE,18,
0,00000188,false,Rx,0,6,04,04,80,08,00,4B,00,00,
245000,00000136,false,Rx,0,8,00,00,00,19,0D,00,00,25,
245000,0000013A,false,Rx,0,8,00,00,00,00,00,00,00,28,
245000,0000013F,false,Rx,0,8,02,40,02,46,FF,EC,00,29,
245000,0000015A,false,Rx,0,8,00,00,00,CA,00,00,00,20,
0,0000017C,false,Rx,0,8,00,00,05,AE,48,00,00,29,
0,0000018E,false,Rx,0,3,00,01,1F,00,00,00,00,00,
246000,000001A4,false,Rx,0,8,00,68,00,00,00,00,00,1A,
246000,000001AA,false,Rx,0,8,7F,FF,00,00,00,00,68,10,
246000,000001B0,false,Rx,0,7,80,10,7F,FF,00,00,1E,00,
246000,000001D0,false,Rx,0,8,25,72,4A,D4,95,D1,2A,A9,
246000,000001DC,false,Rx,0,4,02,05,AE,3C,00,00,00,00,
248000,000001E7,false,Rx,0,4,1A,00,68,18,00,00,00,00,
248000,00000320,false,Rx,0,3,00,00,30,00,00,00,00,00,
0,00000324,false,Rx,0,8,7E,47,2D,1F,3C,04,00,3A,
0,0000037C,false,Rx,0,8,E1,00,E2,34,00,01,00,38,
249000,00000400,false,Rx,0,5,00,00,00,00,13,00,00,00,
249000,00000406,false,Rx,0,5,00,00,00,01,3A,00,00,00,
249000,00000156,false,Rx,0,6,00,01,00,01,07,30,00,00,
249000,0000040C,false,Rx,0,8,40,00,C1,04,10,00,00,11,
249000,000001C0,false,Rx,0,7,00,00,10,00,00,00,28,00,
250000,000001A6,false,Rx,0,8,02,00,00,51,58,80,00,28,
250000,00000097,false,Rx,0,8,80,20,00,02,01,00,00,0B,
250000,00000454,false,Rx,0,6,37,F5,02,29,90,16,00,00,
0,00000465,false,Rx,0,7,FF,FF,FF,FF,FF,FF,14,00,
0,000006C1,false,Rx,0,1,05,00,00,00,00,00,00,00,
252000,00000039,false,Rx,0,2,00,39,00,00,00,00,00,00,
0,00000158,false,Rx,0,8,12,62,05,3B,12,62,BE,26,
0,00000188,false,Rx,0,6,04,04,80,08,00,5A,00,00,
0,00000136,false,Rx,0,8,00,00,00,19,0C,00,00,35,
0,0000013A,false,Rx,0,8,00,00,00,00,00,00,00,37,
255000,0000013F,false,Rx,0,8,02,40,02,36,00,00,00,31,
255000,0000015A,false,Rx,0,8,00,00,00,CA,00,00,00,3F,
0,0000017C,false,Rx,0,8,00,00,05,AE,48,00,00,38,
0,0000018E,false,Rx,0,3,00,02,2D,00,00,00,00,00,
259000,00000156,false,Rx,0,6,00,01,00,00,07,04,00,00,
260000,00000097,false,Rx,0,8,7F,E0,00,02,01,00,00,10,
0,00000039,false,Rx,0,2,00,0C,00,00,00,00,00,00,
0,00000158,false,Rx,0,8,12,61,05,3D,12,61,BE,35,
263000,00000188,false,Rx,0,6,04,04,80,08,00,69,00,00,
265000,00000136,false,Rx,0,8,00,00,00,19,0C,00,00,08,
265000,0000013A,false,Rx,0,8,00,00,00,00,00,00,00,0A,
266000,0000013F,false,Rx,0,8,02,3F,02,36,00,0A,00,0C,
266000,0000015A,false,Rx,0,8,00,00,00,CA,00,00,00,02,
0,0000017C,false,Rx,0,8,00,00,05,AF,48,00,00,0A,
0,0000018E,false,Rx,0,3,00,0A,34,00,00,00,00,00,
0,000001A4,false,Rx,0,8,00,68,00,00,00,00,00,29,
267000,000001AA,false,Rx,0,8,7F,FF,00,00,00,00,68,2F,
267000,000001B0,false,Rx,0,7,80,10,7F,FF,00,00,2D,00,
0,000001D0,false,Rx,0,8,25,76,4A,DC,95,99,2A,B8,
0,000001DC,false,Rx,0,4,02,05,AF,0E,00,00,00,00,
267000,000001E7,false,Rx,0,4,1A,00,68,27,00,00,00,00,
268000,00000156,false,Rx,0,6,00,01,00,01,07,12,00,00,
269000,000001C0,false,Rx,0,7,00,00,10,00,00,00,37,00,
269000,000001A6,false,Rx,0,8,02,00,00,51,57,80,00,38,
269000,00000294,false,Rx,0,8,00,15,00,03,FA,C4,20,23,
269000,00000097,false,Rx,0,8,80,20,00,02,01,00,00,29,
0,00000309,false,Rx,0,8,13,4D,00,00,00,31,00,7C,
0,00000374,false,Rx,0,7,00,00,00,00,00,00,37,00,
0,00000377,false,Rx,0,8,24,06,B5,74,CC,00,D2,36,
270000,00000378,false,Rx,0,8,07,50,EA,16,40,20,00,32,
0,00000158,false,Rx,0,8,12,66,05,3D,12,66,BE,0E,
0,00000188,false,Rx,0,6,04,04,80,08,00,78,00,00,
273000,00000421,false,Rx,0,5,00,00,00,01,00,00,00,00,
274000,00000039,false,Rx,0,2,00,1B,00,00,00,00,00,00,
274000,00000136,false,Rx,0,8,00,00,00,18,0C,00,00,18,
276000,0000013A,false,Rx,0,8,00,00,00,00,00,00,00,19,
276000,0000013F,false,Rx,0,8,02,36,02,35,00,00,00,1F,
276000,0000015A,false,Rx,0,8,00,00,00,CA,00,00,00,11,
276000,0000017C,false,Rx,0,8,00,00,05,AF,48,00,00,19,
276000,0000018E,false,Rx,0,3,00,04,0D,00,00,00,00,00,
279000,00000156,false,Rx,0,6,00,01,00,01,07,21,00,00,
280000,00000097,false,Rx,0,8,80,20,00,02,00,00,00,39,
